! Created with skrf (http://scikit-rf.org).
# GHz S RI R 50.0 
!freq ReS11 ImS11 ReS12 ImS12 ReS13 ImS13
! ReS14 ImS14
! ReS21 ImS21 ReS22 ImS22 ReS23 ImS23
! ReS24 ImS24
! ReS31 ImS31 ReS32 ImS32 ReS33 ImS33
! ReS34 ImS34
! ReS41 ImS41 ReS42 ImS42 ReS43 ImS43
! ReS44 ImS44
!
3.4 -0.04657324728091782 0.10958254037874378 -0.5206923186817694 -0.42594242581732994 -0.44221988200771695 0.5363323451146964 -0.1285990571804587 0.05804515180799223
 -0.5087778378147644 -0.4680993265325388 0.05480031291697134 -0.13849952105101665 -0.2169879707177034 0.06298266011382343 -0.5326204425791334 0.45725860653400807
 -0.44449188731424294 0.5579039560492642 -0.23094613135389208 0.03182949074433383 0.05480031291697134 -0.13849952105101665 -0.5326204425791334 0.45725860653400807
 -0.11971620686117906 0.06962358054716043 -0.5632398356825176 0.47039976209183404 -0.5632398356825176 0.47039976209183404 0.06317902310559109 -0.06386887113398779
3.400177777 -0.045926836317149826 0.10803600724513349 -0.5219514518522453 -0.42450230011915646 -0.44081264920830227 0.5370313641993347 -0.12810115158275684 0.05865523584165729
 -0.5093101702942862 -0.46714752264981035 0.05452862311590035 -0.13785276364119467 -0.21664969472360843 0.06368541246401442 -0.5322422260395624 0.4588342137575211
 -0.44527735591711204 0.5590257476630791 -0.2312534398305818 0.03291820342149147 0.05452862311590035 -0.13785276364119467 -0.5322422260395624 0.4588342137575211
 -0.11925716003903887 0.06981117464039058 -0.5632487662088301 0.4716959392262201 -0.5632487662088301 0.4716959392262201 0.06292348594173308 -0.06361373014293054
3.400355555 -0.04495158509508228 0.10820229485197362 -0.5214811753611802 -0.42429477633073964 -0.4407945685600413 0.5388213396654097 -0.1280584874997202 0.059017205704333144
 -0.5114185220269863 -0.4659773223686901 0.05396050832909068 -0.13737397305382504 -0.2162839781711334 0.06417319299085616 -0.531129453127311 0.45987935230458094
 -0.44434414372044284 0.5600827432924265 -0.23118097725550965 0.03391439782840417 0.05396050832909068 -0.13737397305382504 -0.531129453127311 0.45987935230458094
 -0.11891015119659723 0.07002086048998676 -0.562537471394646 0.4722528172241821 -0.562537471394646 0.4722528172241821 0.0624308511275692 -0.06318267334308605
3.400533333 -0.04490106681735301 0.1082065014536711 -0.5226072293913049 -0.42425192994339617 -0.43970046765571624 0.5394476959360028 -0.12790967852238566 0.058899416763954174
 -0.5107700925000211 -0.4654383442215152 0.05320804798060052 -0.1367428204943663 -0.21624976359429526 0.06424563407644944 -0.5313220767767936 0.46048222839188707
 -0.444064048738063 0.5601880686341515 -0.231049696197005 0.03400302651484018 0.05320804798060052 -0.1367428204943663 -0.5313220767767936 0.46048222839188707
 -0.11864504547410318 0.07040777610547477 -0.561567300616086 0.4730391561595372 -0.561567300616086 0.4730391561595372 0.06251466858230212 -0.06310502811657993
3.400711111 -0.044690796332596046 0.10846455382549056 -0.5234002522727725 -0.4231787370904706 -0.4385306719906067 0.5399002728067381 -0.1278382852877891 0.05916140083124124
 -0.5112565582477988 -0.46585571102917295 0.05309676492169386 -0.13609211788641037 -0.2158721959445484 0.06449064930270813 -0.531177531500353 0.4603833721960135
 -0.44352870277303463 0.5604911047223032 -0.23102021242093917 0.03461576155677874 0.05309676492169386 -0.13609211788641037 -0.531177531500353 0.4603833721960135
 -0.11831679118969625 0.070614172009056 -0.5615856869130008 0.4736600484483019 -0.5615856869130008 0.4736600484483019 0.0631077150732622 -0.0622889333792783
3.400888888 -0.04521599026482229 0.10794944931151058 -0.522594817906538 -0.4230036332742603 -0.43906454431404307 0.539852096716889 -0.12788048361735363 0.059417423370270075
 -0.5127347787375659 -0.465614948944091 0.05256955304428441 -0.13640603131259324 -0.21596942964752938 0.06459854382597432 -0.5310453242440764 0.46083195410602473
 -0.44361022146273404 0.5614063429761325 -0.230954250511831 0.035016776223704374 0.05256955304428441 -0.13640603131259324 -0.5310453242440764 0.46083195410602473
 -0.11844735452814448 0.07064956632869346 -0.5620554444772878 0.4743230388598903 -0.5620554444772878 0.4743230388598903 0.06320669711600027 -0.06186106944198754
3.401066666 -0.044283306601630934 0.10829005765890645 -0.5225178924183007 -0.4229725346198937 -0.4386304000419393 0.540744029539209 -0.1274296362934206 0.05977497530380673
 -0.5123258507894323 -0.4649491854395788 0.053055141608492666 -0.13560038864697443 -0.21565535194998425 0.06495476052106783 -0.5302846310675784 0.46202953270520614
 -0.4424815661241137 0.5621108753834405 -0.23097608023024807 0.03561852666503991 0.053055141608492666 -0.13560038864697443 -0.5302846310675784 0.46202953270520614
 -0.11807801188560992 0.07084023680819211 -0.5610182124161137 0.47483625131587104 -0.5610182124161137 0.47483625131587104 0.06240977874713841 -0.06184756056831765
3.401244444 -0.044117455686532955 0.10906694151423468 -0.5235532508207315 -0.4211912472022968 -0.43872189169192194 0.5405122243197326 -0.1276733004456905 0.05967985216381376
 -0.5138776190309196 -0.46385819792933286 0.05216905060890567 -0.13487750010960428 -0.2154966371203906 0.06505283874562706 -0.5303043359828213 0.4625620650371485
 -0.4418166000755021 0.5631570721176544 -0.23087379222767526 0.0362548154955554 0.05216905060890567 -0.13487750010960428 -0.5303043359828213 0.4625620650371485
 -0.11783789105399516 0.07105155964684301 -0.5602206365932368 0.4764954433424695 -0.5602206365932368 0.4764954433424695 0.06235494571277168 -0.061637815648212975
3.401422222 -0.04440723354714334 0.10875782838895644 -0.5223790517476059 -0.42230486186802235 -0.438799143105995 0.5407669853349978 -0.12744330750237842 0.059728723095527465
 -0.5125308370824403 -0.4640575560457092 0.05212677071196694 -0.13515602543001612 -0.21526352157470874 0.06514556900365355 -0.5307717458054425 0.4616542904822812
 -0.4416182433870407 0.5625196455765223 -0.23050017806950904 0.036080577665370046 0.05212677071196694 -0.13515602543001612 -0.5307717458054425 0.4616542904822812
 -0.11774212430718546 0.0710410352435093 -0.5602142825180918 0.4755854383298823 -0.5602142825180918 0.4755854383298823 0.06295217006739967 -0.06120735104842816
3.4016 -0.0439970304013391 0.10815823996145689 -0.5231068973397108 -0.42203191199067425 -0.4381720920413609 0.541375269039501 -0.12723491472144505 0.059732948909081006
 -0.5132819768628053 -0.46471501204380555 0.052090681113083515 -0.13507240419332578 -0.21504592933956745 0.06541923219236775 -0.5302083811746069 0.46291883732757266
 -0.44200189097690895 0.5629309525430789 -0.2308948020899295 0.036116046610327315 0.052090681113083515 -0.13507240419332578 -0.5302083811746069 0.46291883732757266
 -0.11754907511608367 0.07087352233824012 -0.561187524684759 0.47566941633559573 -0.561187524684759 0.47566941633559573 0.06226752438645142 -0.0611559349052541
3.401777777 -0.04461358116518035 0.10766787809293231 -0.5232736242828373 -0.42225046033734925 -0.4382580399125068 0.5422371821898614 -0.12765735380142093 0.05980829910067875
 -0.513615676604326 -0.4634005424508353 0.051455862846729324 -0.13401960607609187 -0.21510459254849948 0.06544982702295367 -0.5304031533597128 0.46301864052566316
 -0.44085596364643875 0.5634874319401165 -0.23062501436782892 0.03671536646413496 0.051455862846729324 -0.13401960607609187 -0.5304031533597128 0.46301864052566316
 -0.11771565769551935 0.07095779930813823 -0.5598635484432489 0.4767975675555865 -0.5598635484432489 0.4767975675555865 0.06285392902743941 -0.060686632921957175
3.401955555 -0.044730839223785915 0.10780339103903032 -0.5228920980047249 -0.42259631940349657 -0.4371940963615283 0.5424854159599422 -0.12739363021987105 0.059976070221444855
 -0.5140578895832794 -0.46464402125365795 0.051156830389495075 -0.13396951133639332 -0.2148835581273634 0.06559830360018165 -0.5297812200070466 0.46265433782854454
 -0.4410733219654102 0.5639156210703058 -0.23070950786891917 0.0368563380519457 0.051156830389495075 -0.13396951133639332 -0.5297812200070466 0.46265433782854454
 -0.11769018216539119 0.07105614854068446 -0.5595087304313935 0.477172878907082 -0.5595087304313935 0.477172878907082 0.06285535059564862 -0.060537565925479625
3.402133333 -0.04573417912495474 0.10761174058314338 -0.5231375478220684 -0.4220427202406801 -0.4380038801522014 0.5427637738747957 -0.12771227633824164 0.05986790222123107
 -0.5144821384355883 -0.4636456364268693 0.05127373906569435 -0.1331867957984804 -0.21484180122924082 0.06574398017375346 -0.5302426801642485 0.46336440177617305
 -0.43942839929842054 0.5643763847642018 -0.23042308663404112 0.03751061969966955 0.05127373906569435 -0.1331867957984804 -0.5302426801642485 0.46336440177617305
 -0.1176623448237483 0.07130229676097861 -0.5581301398323293 0.4781848485604262 -0.5581301398323293 0.4781848485604262 0.06304859843756512 -0.06025284130119956
3.402311111 -0.04587031580647284 0.10775786465031588 -0.5232122339693095 -0.4204207578469459 -0.43732321035183186 0.5428207522935556 -0.1274506992436839 0.060235512366883445
 -0.5138831300043354 -0.46284541385775885 0.05152286196862127 -0.13288595217316818 -0.21457869562001505 0.06599206592650897 -0.530154025159453 0.4639746291419997
 -0.440237750182965 0.563706551145055 -0.23045249384987224 0.03730540011790377 0.05152286196862127 -0.13288595217316818 -0.530154025159453 0.4639746291419997
 -0.11771472306861916 0.07120352076271422 -0.5589344663111959 0.4769665820025698 -0.5589344663111959 0.4769665820025698 0.06250950669225631 -0.06014500696752231
3.402488888 -0.0449103552474686 0.10745006038666756 -0.523560287417281 -0.4210249203935958 -0.4379327430183774 0.543396478994588 -0.12725258228508346 0.06021069607628666
 -0.5148337531707115 -0.4624133999168853 0.05110507452483095 -0.1325706364128782 -0.2144785918724876 0.06605950403639416 -0.5300373020199246 0.4641526466181991
 -0.4395842449151558 0.565065985272063 -0.23063690048521177 0.03803443188181876 0.05110507452483095 -0.1325706364128782 -0.5300373020199246 0.4641526466181991
 -0.1173202729188511 0.07154202784782272 -0.5580985497825656 0.478696462404644 -0.5580985497825656 0.478696462404644 0.06260662165419752 -0.059774800164049166
3.402666666 -0.045094499302399664 0.10779366688321504 -0.5231060412057873 -0.4210984821250076 -0.43681941685399106 0.5431977762722909 -0.12743991748691297 0.060000049639912345
 -0.5145294748738354 -0.46192588471808044 0.050652472348023614 -0.13211557550079367 -0.2142522764923803 0.06651089810960086 -0.5295645329666764 0.4642199659544167
 -0.4390469681723601 0.5643584070305557 -0.23046718213029882 0.038269238550736814 0.050652472348023614 -0.13211557550079367 -0.5295645329666764 0.4642199659544167
 -0.11751422720726447 0.07115077157982366 -0.558259222682247 0.47832836150212366 -0.558259222682247 0.47832836150212366 0.06231562508816325 -0.05933770562193001
3.402844444 -0.04485815700559206 0.10698701075595565 -0.5228614268573909 -0.4200822343080258 -0.43663249140458604 0.5437334845933913 -0.12736325559992137 0.060259747954286666
 -0.5145599218783021 -0.46189923875749517 0.05025532520155662 -0.13224443375118042 -0.21415613018914584 0.06655533691996635 -0.53011541507993 0.464478073934871
 -0.43927804154165606 0.5645672261886668 -0.2305590929167979 0.03858409123136033 0.05025532520155662 -0.13224443375118042 -0.53011541507993 0.464478073934871
 -0.11739099679636007 0.0710912439093003 -0.558012514921584 0.4787254029852407 -0.558012514921584 0.4787254029852407 0.06229962378499705 -0.059425275000073996
3.403022222 -0.045387980511642126 0.10721392632692442 -0.5236488779659638 -0.4193710217832998 -0.4367468337914835 0.5440783827647375 -0.12708612340506673 0.06033282888183396
 -0.5152623496604625 -0.4619246297156826 0.0501332948230264 -0.1315173513342187 -0.21390863075593292 0.06674692290388179 -0.5291398453124327 0.4646039259726406
 -0.43890655396549694 0.5652330448416663 -0.23059160469621398 0.0386866696702079 0.0501332948230264 -0.1315173513342187 -0.5291398453124327 0.4646039259726406
 -0.1173581181769241 0.071228506211558 -0.5581264119474426 0.4794506570035825 -0.5581264119474426 0.4794506570035825 0.06252438494289407 -0.059188721586493756
3.4032 -0.0450598298903666 0.10718657084434548 -0.524173146253627 -0.4203416126423293 -0.4371491066120387 0.5445677499508429 -0.12682589579965153 0.06053708836766049
 -0.515937058070254 -0.4613418436331536 0.04976466032429205 -0.13119128482269155 -0.2138159624774466 0.06701789182441946 -0.5293300703580139 0.4651098453872786
 -0.43836723289539453 0.5653544228198137 -0.23045954862787985 0.0392238324825246 0.04976466032429205 -0.13119128482269155 -0.5293300703580139 0.4651098453872786
 -0.11700711350591464 0.07133394012719597 -0.5579665068254746 0.47937409632042255 -0.5579665068254746 0.47937409632042255 0.06260413934942002 -0.059096212021622886
3.403377777 -0.044111115863311186 0.10718585260120919 -0.5243225821695983 -0.419795019355116 -0.436684827728461 0.5449151050108855 -0.12693425184031273 0.06037615870360542
 -0.517184625414608 -0.46154649770537604 0.0498217667510538 -0.13072623408645295 -0.213710044125391 0.06718085436987253 -0.5291714468366896 0.46567579282916505
 -0.43831642004435023 0.5661950920947366 -0.230641614636178 0.0393162140625255 0.0498217667510538 -0.13072623408645295 -0.5291714468366896 0.46567579282916505
 -0.11690788694113614 0.07132525589466904 -0.5579079497233203 0.48014880026245743 -0.5579079497233203 0.48014880026245743 0.062179069058435246 -0.058678776491422474
3.403555555 -0.044400665721233 0.10699880252238152 -0.5246187565455376 -0.41903563638480495 -0.43624224811207885 0.5447946377081305 -0.12683539109420433 0.06040540165071688
 -0.5154354503295248 -0.4612368628870179 0.050020406658394516 -0.1308880486063869 -0.21354025833744833 0.067283108096439 -0.5289893462775661 0.46531908226134255
 -0.43774056532836886 0.5659217363064911 -0.23048557104249145 0.03966791397591681 0.050020406658394516 -0.1308880486063869 -0.5289893462775661 0.46531908226134255
 -0.11686739294519274 0.07109636575712393 -0.5571259605799999 0.48032680323816146 -0.5571259605799999 0.48032680323816146 0.06256662281429627 -0.058651577748263996
3.403733333 -0.04291549783399419 0.1075275300668552 -0.525207630200327 -0.41906555974379217 -0.4355516080198347 0.5464532001976395 -0.12644049006781402 0.060871646663694594
 -0.5160912000224319 -0.46006602450886175 0.04973746428806432 -0.12980363367662984 -0.21331509317560055 0.06778159298199563 -0.528416119452124 0.4658876947614185
 -0.4373397815959096 0.5664116044200286 -0.23031773079619206 0.04024406017171562 0.04973746428806432 -0.12980363367662984 -0.528416119452124 0.4658876947614185
 -0.11655714856462275 0.07130969636781849 -0.5567897683331439 0.48014562056088533 -0.5567897683331439 0.48014562056088533 0.06273398700671878 -0.05831047100275869
3.403911111 -0.04383590677738073 0.1068985614997281 -0.5243134362322968 -0.41911862450555526 -0.4355107506663867 0.5459080634235602 -0.12634297182693757 0.06071951625637346
 -0.5155561916001447 -0.46028358325248986 0.04902114728384716 -0.12994053392413932 -0.21302478114274245 0.06769173644557361 -0.5284626809805723 0.4662938158069579
 -0.4373629183622532 0.56590999303256 -0.23015546017649485 0.04010490417850548 0.04902114728384716 -0.12994053392413932 -0.5284626809805723 0.4662938158069579
 -0.11649800493982343 0.0711416820291549 -0.5564221345045464 0.4800580457988781 -0.5564221345045464 0.4800580457988781 0.062170104522753795 -0.058086528179492766
3.404088888 -0.042771820907665084 0.10724307482849635 -0.5243329975279374 -0.4178941545311092 -0.4346095422156835 0.5467214377334856 -0.12603514981044217 0.061250005876202905
 -0.5162964687605103 -0.4590022845450773 0.0489530573247954 -0.12950259102109682 -0.2130411413201832 0.06785876916406686 -0.5284672512703185 0.46698984775767594
 -0.4360831618933568 0.5670556615378475 -0.2301168700895164 0.040641143312771105 0.0489530573247954 -0.12950259102109682 -0.5284672512703185 0.46698984775767594
 -0.11587637009193082 0.07158021484831255 -0.555759856365708 0.4813976716266683 -0.555759856365708 0.4813976716266683 0.062338563590938166 -0.05776906805953992
3.404266666 -0.04331864997150039 0.10722987843150325 -0.5245448634373757 -0.4182830597336229 -0.4349231121418794 0.5463642740479495 -0.12625192959366907 0.06123184986681781
 -0.5165643149786677 -0.4595762242235508 0.0487428275027227 -0.12935538263373642 -0.21266923087289424 0.06785859437726761 -0.5285604724010294 0.46632487955721447
 -0.4367223126476722 0.5674067125471519 -0.2302633479448531 0.04088867765840519 0.0487428275027227 -0.12935538263373642 -0.5285604724010294 0.46632487955721447
 -0.11607719723158703 0.07159552174624437 -0.5564150337572256 0.48152352293518424 -0.5564150337572256 0.48152352293518424 0.0624936691434246 -0.05757652407166027
3.404444444 -0.043796108131211466 0.10741558977126756 -0.5249559179002453 -0.41859810947056164 -0.4348234755569055 0.5469099704979408 -0.12624402912077182 0.061325666364105795
 -0.5165953308456239 -0.45914499841861917 0.04836253787516542 -0.1284536544155606 -0.21261972347519958 0.06822233422632167 -0.5286010039545397 0.4673134186480984
 -0.4361060028651046 0.5675902080306178 -0.23013726958381117 0.041182563905933244 0.04836253787516542 -0.1284536544155606 -0.5286010039545397 0.4673134186480984
 -0.11594018017542443 0.071788172000924 -0.5557015715378937 0.4821572121081505 -0.5557015715378937 0.4821572121081505 0.062385421801030794 -0.05712989985810238
3.404622222 -0.04423728394196983 0.10753278825812998 -0.5243519019359227 -0.41785594346297794 -0.4338844814806691 0.5473481011443742 -0.12624031473946415 0.061636094706649325
 -0.5167246718722716 -0.4585992453383265 0.04805393633790499 -0.12733655529850035 -0.21211346012822227 0.06811734524068636 -0.5265538139083984 0.46803295484480095
 -0.43490484669190266 0.5685347996058501 -0.22977948947771654 0.04150746559703657 0.04805393633790499 -0.12733655529850035 -0.5265538139083984 0.46803295484480095
 -0.11597901391532339 0.07191623374637467 -0.5546424286869518 0.4828399447297202 -0.5546424286869518 0.4828399447297202 0.0631225851300086 -0.05661119151667121
3.4048 -0.044349007634118906 0.10695208951715761 -0.5246624228390803 -0.4174584430593338 -0.43434227423135074 0.5478758155595653 -0.12600365187700757 0.06172144011563713
 -0.5181959969501642 -0.4596673286239273 0.04782106661382304 -0.12840060427808983 -0.21233389275661463 0.06821062339383444 -0.5277937627517931 0.46794433691543424
 -0.4355967859695581 0.5683548489480135 -0.23000415472119923 0.04150443609034748 0.04782106661382304 -0.12840060427808983 -0.5277937627517931 0.46794433691543424
 -0.11587545179110746 0.0720937032212254 -0.5551076556207025 0.48331398212039706 -0.5551076556207025 0.48331398212039706 0.06225895861482186 -0.05657929894192892
3.404977777 -0.043549481779195674 0.10692070519208165 -0.5245781742088361 -0.41733447952134817 -0.433453752728712 0.5482090598156937 -0.12597240646216454 0.06170478548778305
 -0.5174671906638671 -0.4589887750047853 0.047888028725270426 -0.12774014561292032 -0.21200746776059967 0.06840638678749926 -0.527021412746882 0.4685262488664788
 -0.43491413633078424 0.5684085248626048 -0.22984244467120188 0.041733475040177874 0.047888028725270426 -0.12774014561292032 -0.527021412746882 0.4685262488664788
 -0.11560320413967079 0.07202645765818626 -0.5546764899530462 0.48345089417032233 -0.5546764899530462 0.48345089417032233 0.06229151441657931 -0.056808885454983374
3.405155555 -0.04364025453300529 0.10688356585333134 -0.5257687845423477 -0.4173141637673098 -0.4330330034127647 0.5483877973742 -0.12598991319546146 0.06178332418087243
 -0.5172678677190552 -0.4589100024671137 0.047761760830851624 -0.1267166403088289 -0.21196788024029747 0.06859672868406275 -0.5277257736247657 0.4682396506296197
 -0.4353179777606909 0.5682925656835098 -0.22980166949402173 0.041771515568307084 0.047761760830851624 -0.1267166403088289 -0.5277257736247657 0.4682396506296197
