# GHZ S DB R 50.000000000000
3.400000000000 -12.337992390540 -32.919207644824 -3.205976641405 -137.384497607441 -3.443358866966 -140.715771842659 -17.266310204174 -74.736074474280
3.400177777000 -12.323945220502 -33.239517694648 -3.209141700280 -137.472449263287 -3.442513674730 -140.878595988089 -17.268382051843 -74.809734521690
3.400355555000 -12.323492046250 -33.289021722998 -3.199512975605 -137.661885151360 -3.448916656472 -140.867028433649 -17.261312723154 -75.036144254574
3.400533333000 -12.312702332592 -33.207127648693 -3.210093984708 -137.658708178659 -3.437982543244 -140.930348886346 -17.278920313652 -75.153564261929
3.400711111000 -12.318828937715 -33.245130730920 -3.202044608145 -137.660295486441 -3.438748901986 -141.043823072006 -17.283180169657 -75.102919550768
3.400888888000 -12.349244020656 -33.297689449972 -3.190355017840 -137.757380835731 -3.448256149089 -141.012272350387 -17.256714048718 -75.163744021310
3.401066666000 -12.316714098413 -33.351342613772 -3.199769261038 -137.775431055978 -3.449281432735 -141.010207631089 -17.262170217425 -75.383462249730
3.401244444000 -12.331394410523 -33.182970282856 -3.194518022610 -137.928608520246 -3.453325561565 -141.183810312647 -17.240643544553 -75.473849218380
3.401422222000 -12.345301357265 -33.129475695115 -3.205382385667 -137.841562542123 -3.456104363898 -141.047021146866 -17.267399655768 -75.688012679876
3.401600000000 -12.336514602436 -33.211374702253 -3.192852744817 -137.842951543411 -3.451001460237 -141.104122719872 -17.277578510235 -75.516708796545
3.401777777000 -12.368901056524 -33.098939561955 -3.200807328584 -137.942208960647 -3.447551788342 -141.098549469650 -17.256553166140 -75.670852736425
3.401955555000 -12.385856131109 -33.173016519869 -3.186234463912 -137.890363261007 -3.448579185435 -141.055192881888 -17.255066073904 -75.776258745785
3.402133333000 -12.392915396281 -33.101647162257 -3.190672692578 -137.975172259283 -3.450605487225 -141.105046206235 -17.245696603234 -75.872370466483
3.402311111000 -12.375002802646 -33.038445681770 -3.202980315615 -137.991198113492 -3.463007167699 -141.216809991920 -17.233631335810 -75.834077185243
3.402488888000 -12.395886117998 -32.961963959600 -3.197733496336 -138.070450799506 -3.454602296532 -141.195238494855 -17.239241389373 -76.105190022370
3.402666666000 -12.412732977862 -32.869724892776 -3.204666285327 -138.083656657557 -3.458582589323 -141.166060063268 -17.258814187696 -76.124784011618
3.402844444000 -12.422187250103 -32.947518295548 -3.204605276915 -138.086985021166 -3.469292290263 -141.220581492529 -17.222044533686 -76.290915325065
3.403022222000 -12.423886200597 -32.816518758055 -3.197826847002 -138.124270774087 -3.467100909327 -141.310053583484 -17.228010620551 -76.280795832616
3.403200000000 -12.433740616520 -32.767440503933 -3.196396948110 -138.197477572047 -3.453955773208 -141.273397209816 -17.237508010172 -76.504190232882
3.403377777000 -12.433311662321 -32.839242243327 -3.183019927401 -138.253603088963 -3.456867120888 -141.317747025424 -17.239336561469 -76.484952870201
3.403555555000 -12.444524942921 -32.843318045727 -3.201968941265 -138.176263444395 -3.460009636036 -141.384128671041 -17.236321402542 -76.634392617752
3.403733333000 -12.436081908043 -32.659048473025 -3.205622240749 -138.284807364024 -3.453816864823 -141.413474071794 -17.235544186765 -76.748398093397
3.403911111000 -12.448408018151 -32.652301277170 -3.208818860642 -138.241830356016 -3.462425466126 -141.362328955675 -17.242108285711 -76.975054978775
3.404088888000 -12.467016823325 -32.627740338149 -3.212584847324 -138.361991914460 -3.472117417101 -141.445104098871 -17.231625816612 -77.039441022353
3.404266666000 -12.475516886786 -32.641092755840 -3.205275883217 -138.341194124396 -3.466832373539 -141.430408263334 -17.225370339645 -76.955340792123
3.404444444000 -12.492334700659 -32.573307478970 -3.208585183290 -138.369611397821 -3.460131128916 -141.431257850764 -17.234879217196 -77.083086797497
3.404622222000 -12.486216328080 -32.648080627369 -3.211925022702 -138.410566652873 -3.472234407696 -141.448664464351 -17.248091556847 -77.454046754179
3.404800000000 -12.503033947900 -32.530201702325 -3.189206179087 -138.425273909813 -3.472295240758 -141.491766824716 -17.198842783528 -77.177942122943
3.404977777000 -12.492558982947 -32.600997815557 -3.201698050981 -138.427260813552 -3.474149363314 -141.495574512254 -17.212015623587 -77.674571828355
3.405155555000 -12.470625020799 -32.390389425187 -3.204227269274 -138.421184514203 -3.462243051539 -141.560201300527 -17.209906253053 -77.471867505249
3.405333333000 -12.514746254271 -32.622215368796 -3.190005403237 -138.519569803620 -3.506043444954 -141.604191446225 -17.274581041092 -78.215425377864
3.405511111000 -12.507085522869 -32.922447001950 -3.238500728200 -138.702118644617 -3.482249188938 -141.552181112337 -17.242489670754 -78.108757320950
3.405688888000 -12.508926657971 -32.333781779030 -3.206468081222 -138.577535261726 -3.479050301224 -141.587729219244 -17.216503814276 -77.800098420338
3.405866666000 -12.517485869017 -32.434165240637 -3.202584787894 -138.641437444165 -3.483591680135 -141.631421773694 -17.217507061824 -78.047490459313
3.406044444000 -12.520017269473 -32.651135269379 -3.216809855183 -138.679959893026 -3.494377672560 -141.719496687747 -17.277298170821 -78.425190385396
3.406222222000 -12.532177473649 -33.270481587848 -3.241619324002 -138.705834235033 -3.532082197683 -141.668732005771 -17.392775009862 -79.139312864916
3.406400000000 -12.530417455268 -32.310368582701 -3.211040675126 -138.692336342189 -3.480922221400 -141.598698166687 -17.219294583771 -78.134455434411
3.406577777000 -12.555421406351 -32.219522932576 -3.199027501466 -138.650879069353 -3.474682673845 -141.705509778826 -17.216245087569 -78.245304891571
3.406755555000 -12.566602778452 -32.260818259731 -3.214183984693 -138.760282335284 -3.504661310254 -141.727213219510 -17.247630947733 -78.853877596206
3.406933333000 -12.571962057006 -32.476363047196 -3.213140385657 -138.723001399798 -3.494797449926 -141.717700301878 -17.286590704989 -78.814619432798
3.407111111000 -12.578525977808 -32.180243692705 -3.199692401623 -138.782604510594 -3.480599703749 -141.727036863038 -17.203635098221 -78.494165239022
3.407288888000 -12.595524919207 -32.068731468352 -3.199180111213 -138.771584175415 -3.472330924871 -141.803639177555 -17.202049000271 -78.532130839086
3.407466666000 -12.585015077224 -32.227180353145 -3.206091482596 -138.915506356570 -3.524671951275 -141.811263819297 -17.377443062941 -79.572317474347
3.407644444000 -12.594890334820 -32.559660191422 -3.233623737486 -138.995529812833 -3.494548068443 -141.869061190998 -17.258492903791 -79.257228624711
3.407822222000 -12.605329882169 -32.038651175251 -3.202937360379 -138.850804633975 -3.485008626455 -141.854567666608 -17.231494935996 -78.911894847078
3.408000000000 -12.601827164490 -31.944658993647 -3.197463570529 -138.929110196288 -3.486689202867 -141.832454273165 -17.202779991638 -79.022285485547
3.408177777000 -12.608042141060 -32.067253170879 -3.207780252482 -138.896336062075 -3.525112255611 -141.921111164678 -17.323597420685 -79.741335541405
3.408355555000 -12.611135536382 -32.815464186096 -3.255065939300 -139.099578147499 -3.501729865889 -141.887060764132 -17.306983948584 -79.609416161748
3.408533333000 -12.658952775644 -31.766950777539 -3.184275366790 -139.021220431283 -3.489402179344 -141.936998368910 -17.214886074155 -79.201829936514
3.408711111000 -12.637343906638 -31.735509871327 -3.202816703681 -138.975785986468 -3.476046475860 -141.921883305995 -17.208341790197 -79.353005457889
3.408888888000 -12.655693576416 -31.630543252556 -3.192276115195 -138.987288486010 -3.478275507388 -141.972343218343 -17.200389274329 -79.442253421589
3.409066666000 -12.655069630696 -31.638198556632 -3.189932659842 -139.040112295591 -3.489519088298 -142.032507360690 -17.254312055076 -79.639487098345
3.409244444000 -12.670150178630 -31.453661764673 -3.196135484401 -139.095194644663 -3.482025916123 -141.975660063805 -17.209902836416 -79.465505314109
3.409422222000 -12.683604241766 -31.556956173230 -3.190682920168 -139.126003959715 -3.482076218262 -142.013497682322 -17.215945066889 -79.703919304372
3.409600000000 -12.690246050429 -31.567780260222 -3.199324591708 -139.161238594394 -3.483232973784 -142.037104586552 -17.207398817059 -79.633475320357
3.409777777000 -12.687357094144 -31.487578426999 -3.191908032740 -139.171560968522 -3.481453208478 -142.072841827769 -17.190037870428 -80.007003948026
3.409955555000 -12.689581022427 -31.394355732093 -3.191521986090 -139.214049994749 -3.484125806168 -142.081571974247 -17.194458022156 -79.857372306306
3.410133333000 -12.724753414494 -31.346243540343 -3.191568249297 -139.217075245891 -3.486331657474 -142.103403077998 -17.207183088680 -80.046719328033
3.410311111000 -12.722370355431 -31.294780865286 -3.199203062355 -139.285423035036 -3.480294653328 -142.111404126803 -17.209674603231 -80.178329792842
3.410488888000 -12.717108666283 -31.307521081874 -3.189175307629 -139.217841207228 -3.485422935267 -142.105253696424 -17.192676285009 -80.237615446931
3.410666666000 -12.724283608605 -31.176451165419 -3.194365819229 -139.347279424782 -3.490728130563 -142.137749564492 -17.191532387780 -80.368295816342
3.410844444000 -12.760110992506 -31.245275510949 -3.189194854477 -139.418228212675 -3.487941440783 -142.123900823347 -17.208876217498 -80.428878393360
3.411022222000 -12.761672238591 -31.184994752623 -3.195976888036 -139.375550628184 -3.482637951923 -142.204704564011 -17.197972578488 -80.575851522144
3.411200000000 -12.743869420241 -31.344369028668 -3.192504610541 -139.411597269788 -3.494798495879 -142.262309900959 -17.175418737673 -80.701582911455
3.411377777000 -12.764327996829 -31.092583834110 -3.197690816814 -139.430364697010 -3.491060559613 -142.212202145752 -17.186489107848 -80.799692515176
3.411555555000 -12.776833376532 -31.138900135683 -3.188242447199 -139.409930961214 -3.491987112997 -142.232684790082 -17.186556982129 -80.624142977157
3.411733333000 -12.781598594133 -30.978705302081 -3.181246671103 -139.461478044670 -3.487129084167 -142.311487356485 -17.200271350582 -80.924328048185
3.411911111000 -12.781237262833 -30.928361254639 -3.194299263991 -139.461180812835 -3.492722707732 -142.325487303825 -17.226166134600 -81.185089119042
3.412088888000 -12.775906459655 -30.868853404549 -3.199189140356 -139.554424683719 -3.489195125076 -142.316989556818 -17.219607887548 -81.150248107880
3.412266666000 -12.796679112109 -30.753837490685 -3.201136635484 -139.519970889020 -3.492298876213 -142.332671489135 -17.202611766780 -81.261267825948
3.412444444000 -12.812918433974 -30.745704738276 -3.188850360968 -139.554191189373 -3.488561753562 -142.361116929365 -17.216911267272 -81.368989614977
3.412622222000 -12.806648156021 -30.805037289515 -3.192233055484 -139.545978775014 -3.488979310685 -142.403460528293 -17.219791627685 -81.364479680533
3.412800000000 -12.818341031922 -30.835819667155 -3.184742321838 -139.588805308377 -3.490942564739 -142.418827375921 -17.208875652446 -81.351266587223
3.412977777000 -12.844520936867 -30.749287325592 -3.191194224039 -139.623030962494 -3.494428426333 -142.390017344201 -17.218331563196 -81.574554037489
3.413155555000 -12.836687014329 -30.545781345239 -3.181929723160 -139.676072310607 -3.497890395319 -142.426995922825 -17.207660660983 -81.805519462315
3.413333333000 -12.845603294487 -30.513843598077 -3.184320747676 -139.664425642013 -3.491791241027 -142.424882652410 -17.186692631450 -81.750745814631
3.413511111000 -12.869103151947 -30.684938391401 -3.180690993318 -139.760306508262 -3.493017186124 -142.522110114694 -17.180363031079 -81.906780816251
3.413688888000 -12.859105430513 -30.565785104538 -3.189815575076 -139.798985634895 -3.499494476108 -142.480802625369 -17.190193579679 -82.073788097447
3.413866666000 -12.879961943179 -30.681139173098 -3.174565440371 -139.771324748965 -3.486494002387 -142.518809243497 -17.206365116374 -81.853417815550
3.414044444000 -12.861044755766 -30.618680696603 -3.199393894829 -139.849526858866 -3.500073041040 -142.584483367739 -17.206829909919 -81.992627747067
3.414222222000 -12.872222242322 -30.453742903338 -3.185273054613 -139.860655396881 -3.493771040151 -142.573307201290 -17.215263730183 -82.301295047340
3.414400000000 -12.885875028664 -30.244720229902 -3.199888604151 -139.907996660643 -3.492179240126 -142.581865651268 -17.175153347836 -82.037628121864
3.414577777000 -12.896120760248 -30.355130281423 -3.188230994211 -139.870927280022 -3.491477183953 -142.639766734687 -17.209475352821 -82.413677886629
3.414755555000 -12.910399739319 -30.273546123143 -3.195803645678 -139.932262227640 -3.505735228310 -142.664961437854 -17.231299389299 -82.577047137011
3.414933333000 -12.895630360287 -30.477923327228 -3.200721409537 -139.976539629270 -3.503149610634 -142.684027330250 -17.235953034282 -82.838228697270
3.415111111000 -12.925415348391 -30.252529932411 -3.191274904613 -140.008976641705 -3.497281993311 -142.732863558251 -17.212663811692 -82.550120416450
3.415288888000 -12.931279963380 -29.995467472929 -3.190831170156 -140.051229660984 -3.500759472713 -142.684398145399 -17.191502842876 -82.702010385890
3.415466666000 -12.961191126967 -30.152240363995 -3.188542858189 -140.043980598858 -3.497696559110 -142.733447879193 -17.220614447997 -82.843884184936
3.415644444000 -12.930269662054 -29.991274064419 -3.190639656623 -140.015626171179 -3.501680997921 -142.748096721752 -17.195617904362 -82.921961552042
3.415822222000 -12.963284377754 -29.972122139517 -3.188691502948 -140.075248054937 -3.495094676394 -142.748855974453 -17.210776551796 -82.980736372687
3.416000000000 -12.976073609507 -30.074463921887 -3.183693707780 -140.000117574892 -3.494379100185 -142.758581432810 -17.227387096804 -82.815426562594
3.416177777000 -12.997114307690 -29.930611574940 -3.180892896893 -140.026066222098 -3.499173338026 -142.748943962596 -17.205816200472 -83.164191790893
3.416355555000 -13.016495066998 -29.739610479770 -3.179738389687 -140.100329097774 -3.502899802129 -142.777496909057 -17.180497948685 -83.285033894506
3.416533333000 -12.981238249338 -29.782176994638 -3.188582731741 -140.145570268380 -3.500343011129 -142.829153887674 -17.194405218126 -83.305954260358
3.416711111000 -13.029346442608 -29.742035603408 -3.173252962349 -140.183115786884 -3.494075504280 -142.807447068202 -17.202277283555 -83.565368131419
3.416888888000 -13.029346884809 -29.708665012716 -3.183898904095 -140.252338984499 -3.498514290865 -142.879953167965 -17.208915062500 -83.518408469897
3.417066666000 -13.000483204560 -29.715616497568 -3.183761686769 -140.199881746325 -3.495240790099 -142.927218590903 -17.197110806654 -83.476201967238
3.417244444000 -13.035968966987 -29.775895202136 -3.178393447957 -140.313156042915 -3.508015333862 -142.968412384769 -17.228158819071 -83.848280418016
3.417422222000 -13.035315076688 -29.490705079712 -3.182832388302 -140.314366544233 -3.498552739759 -142.921830956022 -17.216270823529 -83.898036302005
3.417600000000 -13.053730806280 -29.597543055055 -3.178141927148 -140.324289009083 -3.499748267146 -142.967969821031 -17.203900744900 -83.958232323665
3.417777777000 -13.072700588306 -29.586124724763 -3.174813641987 -140.316258694886 -3.502976267131 -143.040567115195 -17.166255011576 -84.049666879071
3.417955555000 -13.072246855552 -29.438143475116 -3.184666613001 -140.411672927470 -3.504581831235 -143.030228315944 -17.183085406253 -84.170007966299
3.418133333000 -13.058210920718 -29.640640971525 -3.190961689652 -140.471461828513 -3.496934988948 -142.991079455073 -17.211736483243 -84.190049624475
3.418311111000 -13.085837953950 -29.337138845401 -3.184611691991 -140.488609714076 -3.500988146568 -143.002604799027 -17.190024519608 -84.565991155763
3.418488888000 -13.082350283937 -29.328624183632 -3.167576163094 -140.431469580664 -3.499817873410 -143.017839134799 -17.187419090678 -84.555066983752
3.418666666000 -13.099219093249 -29.329315831411 -3.173004038871 -140.487143248188 -3.500962666489 -143.091917975550 -17.197813239532 -84.523638573979
3.418844444000 -13.082245797298 -29.345250138712 -3.186957918633 -140.536387329391 -3.510310347795 -143.124315770473 -17.286794541806 -84.671560383121
3.419022222000 -13.114341911816 -29.342179889826 -3.168892714129 -140.568355603668 -3.500761419118 -143.133176406062 -17.212850639584 -84.466926374374
3.419200000000 -13.136166774454 -29.121863748518 -3.171842757495 -140.578949101109 -3.494699054278 -143.073263701714 -17.199551807829 -84.847639773742
3.419377777000 -13.125217823757 -29.083246711951 -3.177966244001 -140.649590725351 -3.498441445873 -143.169173441279 -17.208996140656 -84.830261040627
3.419555555000 -13.165434489346 -28.959186797217 -3.162786722706 -140.662097249546 -3.505739779317 -143.181435937549 -17.200427739483 -84.926783699231
3.419733333000 -13.135072791266 -29.027085293489 -3.174871699450 -140.736593461176 -3.505339364498 -143.223856497196 -17.198059725330 -84.911082633703
3.419911111000 -13.156973994829 -29.000200446913 -3.168523007577 -140.653109825510 -3.500622694450 -143.185393865688 -17.221991055207 -84.996311768907
3.420088888000 -13.186467632551 -28.834312869457 -3.172586161496 -140.745661355018 -3.507023949630 -143.238420720857 -17.208492856287 -85.240608990348
3.420266666000 -13.192166429280 -28.974032668262 -3.170338341642 -140.775804780050 -3.504433727307 -143.298844708934 -17.200912429925 -85.485508433162
3.420444444000 -13.176013382995 -29.144293881519 -3.177508760042 -140.802008725987 -3.500202868806 -143.311878712486 -17.250573491137 -85.468930380399
3.420622222000 -13.209589527028 -28.953863933603 -3.164813250226 -140.844509697182 -3.500175013244 -143.310717799839 -17.221989498764 -85.593528344937
3.420800000000 -13.219590246017 -28.722983996587 -3.165185044754 -140.818031863994 -3.505507666750 -143.370277284954 -17.213105862299 -85.705334935651
3.420977777000 -13.195986923049 -29.456659432028 -3.206229667712 -140.975977916871 -3.520860120951 -143.368569178229 -17.293161488755 -86.123456770417
3.421155555000 -13.210464323122 -28.891378242316 -3.175563240675 -140.950174151829 -3.503664215832 -143.389306908722 -17.229023948552 -85.986712177107
3.421333333000 -13.233310212438 -29.012337428501 -3.174610992606 -140.992668947633 -3.509192863358 -143.405419417227 -17.245282572024 -86.149330463037
3.421511111000 -13.235972187968 -28.584496821134 -3.167919849442 -140.913821125697 -3.499730397018 -143.429798705035 -17.221292903498 -85.894599776414
3.421688888000 -13.249574786536 -28.587328641626 -3.157251584673 -140.992374126169 -3.500862383468 -143.422421081176 -17.246073892862 -86.086732424377
3.421866666000 -13.245111408746 -28.433159798872 -3.154943186492 -140.986336413680 -3.497646255628 -143.433619268310 -17.234844364551 -86.127618594240
3.422044444000 -13.263626988418 -28.415082259432 -3.155778591348 -141.065488933221 -3.506515419761 -143.467937873318 -17.269617706940 -86.438623442147
3.422222222000 -13.259898062326 -28.476634135825 -3.171358816111 -141.112451951859 -3.499157883505 -143.447125874875 -17.228321316264 -86.311260189750
3.422400000000 -13.280341369473 -28.392819138704 -3.163413516496 -141.000755804931 -3.502706010817 -143.532050401065 -17.218677764848 -86.426049059290
3.422577777000 -13.287331509241 -28.245884578814 -3.162060770130 -141.100770197918 -3.500602365604 -143.516088439596 -17.245548524122 -86.560825766302
3.422755555000 -13.294316837123 -28.194842555129 -3.158830774546 -141.108370451283 -3.504676501968 -143.561620624164 -17.272949644698 -86.640341185780
3.422933333000 -13.296499866869 -28.347530411414 -3.160231708209 -141.115048989183 -3.501495304794 -143.545036717442 -17.239120998442 -86.762591750988
3.423111111000 -13.319135807828 -28.147340079983 -3.158261313906 -141.155882391121 -3.493619770734 -143.540952891840 -17.235704336341 -86.754779204478
