# GHZ S DB R 50.000000000000
3.400000000000 -18.407421159334 -127.354236508452 -2.934274088595 128.544948238961 -3.158633599795 129.506462764881 -27.461310525552 -81.649158087580
3.400177777000 -18.415496699467 -126.918761132580 -2.917646620798 128.538158761480 -3.163060766349 129.380252679128 -27.515261143952 -81.551107140788
3.400355555000 -18.393002156664 -127.601790536814 -2.914648917015 128.426882955986 -3.145912396918 129.285632367900 -27.604090172111 -81.320411778737
3.400533333000 -18.426980421921 -127.504362498088 -2.915760813832 128.404048784497 -3.148493775034 129.183262974068 -27.602216909142 -81.070708893250
3.400711111000 -18.493152086023 -127.798382856221 -2.916913096596 128.355328700112 -3.153328299927 129.085017187872 -27.690276024390 -80.785558567767
3.400888888000 -18.457769185483 -127.820160534002 -2.907579378102 128.314969368072 -3.149591059323 129.121638939668 -27.728722152159 -80.133064843920
3.401066666000 -18.494414424860 -127.703997872220 -2.909348736391 128.209058775673 -3.144367319152 129.047612321292 -27.760321751928 -80.008575893802
3.401244444000 -18.514193174650 -127.945005755482 -2.904351277047 128.115436014546 -3.145893800830 129.065479045668 -27.716251858191 -80.149933358933
3.401422222000 -18.481770487542 -128.024174840182 -2.911925505105 128.134454682574 -3.142818837031 129.057204530788 -27.763885582220 -80.139054532639
3.401600000000 -18.501049226188 -127.761625061908 -2.905121584749 128.138279429985 -3.141848725733 128.985618082912 -27.763483079114 -80.295265887722
3.401777777000 -18.533142767155 -128.203592942856 -2.908385696808 128.038579045236 -3.132821774474 128.946546329671 -27.763175395903 -78.851838599032
3.401955555000 -18.487302477791 -128.169668710070 -2.902667252068 128.031163720353 -3.138741886320 128.865667429863 -27.800517716115 -79.313367341349
3.402133333000 -18.537876613467 -127.953630704483 -2.910541658629 127.904637642433 -3.129707976394 128.903115109355 -27.739608226170 -78.551838657901
3.402311111000 -18.578931137562 -127.883776244803 -2.910912367721 127.988758991195 -3.134477744645 128.856634852653 -27.802736261474 -78.248042882242
3.402488888000 -18.538234145153 -127.964200553473 -2.902774244920 127.880573117934 -3.124132370633 128.865949481469 -27.782977131611 -78.744362094555
3.402666666000 -18.606854938791 -128.225025950471 -2.913559316799 127.881406247812 -3.134754221485 128.804944892851 -27.852780504062 -78.426494769976
3.402844444000 -18.569450603895 -127.881269447878 -2.909834366795 127.885744389268 -3.131010577224 128.765393475871 -27.790471799784 -78.068931593313
3.403022222000 -18.577934614062 -128.310111148045 -2.906220233215 127.829534838104 -3.126770132830 128.754980572835 -27.785283968249 -78.260528871888
3.403200000000 -18.606214431280 -128.509601730397 -2.909069700916 127.789456426394 -3.118887651075 128.755584843412 -27.753522331015 -78.065945962278
3.403377777000 -18.626491050288 -128.257891975325 -2.901382357622 127.745023160260 -3.119130476902 128.708036828450 -27.823125345058 -77.969738487594
3.403555555000 -18.598422486591 -128.151628278653 -2.908282633189 127.721957957357 -3.123742952489 128.685869127048 -27.721259512774 -77.801839686222
3.403733333000 -18.638970758018 -128.364507604176 -2.906552397784 127.672578470982 -3.112987758276 128.556666866810 -27.812970619259 -77.340674742276
3.403911111000 -18.604567398925 -128.496601797963 -2.911200251156 127.698603728265 -3.118603993075 128.581922597690 -27.793923557161 -77.511931103309
3.404088888000 -18.650708255215 -128.473126376550 -2.909670593665 127.561386391400 -3.117672989613 128.482516056327 -27.826455651761 -77.058802634274
3.404266666000 -18.628708750626 -128.538272765320 -2.901563725405 127.584804418983 -3.118721492163 128.520890421215 -27.825905271695 -76.760811103533
3.404444444000 -18.662751834823 -128.568518352815 -2.904357261425 127.536751432222 -3.114182637534 128.486628299098 -27.818994945545 -76.365786489508
3.404622222000 -18.684641113764 -128.879539997194 -2.904128789589 127.414445344819 -3.117175301301 128.403967977613 -27.831152107778 -75.647789639047
3.404800000000 -18.635629229952 -128.575465541409 -2.900758718081 127.467167073802 -3.108500378292 128.406502864733 -27.871633753493 -75.854656972971
3.404977777000 -18.680049344904 -128.408981153097 -2.905277345110 127.421177933442 -3.112107140889 128.332447754774 -27.749144844352 -75.834173696728
3.405155555000 -18.752676002487 -128.754278930867 -2.903415684760 127.452487933627 -3.113606314683 128.296294565060 -27.752727491006 -75.426760979834
3.405333333000 -18.776767521391 -128.684782501747 -2.904594786499 127.313955653126 -3.141476427197 128.160984406573 -27.480552867507 -73.482211738944
3.405511111000 -18.904781265949 -128.997551994304 -2.945544884041 127.186816258376 -3.112654438718 128.204579001715 -27.679250585449 -73.511564134949
3.405688888000 -18.776148653204 -128.880827798496 -2.902117344779 127.316642918356 -3.103530204794 128.188389424388 -27.850243590590 -74.599458277331
3.405866666000 -18.737287515711 -129.018745941484 -2.908683808140 127.182096277731 -3.106416612567 128.200400602556 -27.683244726412 -73.779293368364
3.406044444000 -18.855421951809 -129.222916287416 -2.918115704519 127.125986053431 -3.126915315103 128.093987444083 -27.532392089481 -73.653817703146
3.406222222000 -19.007158276426 -128.823836048311 -2.949779337739 126.952984065363 -3.166026917377 127.920970202336 -27.054713511182 -71.379946717393
3.406400000000 -18.858741778262 -129.087977399110 -2.912980966181 127.134380980053 -3.096244769689 128.123688521414 -27.829284819444 -73.992741193831
3.406577777000 -18.760820962891 -129.067669556665 -2.898248153934 127.126734739676 -3.103891513012 128.121025609881 -27.721570618850 -73.464294637586
3.406755555000 -18.808497131779 -129.198954006801 -2.902702530046 127.021158590950 -3.111528311818 128.017767671896 -27.607468455357 -73.332774241248
3.406933333000 -18.895730310967 -129.260286295712 -2.916904929624 127.029543546979 -3.115999719328 127.912930227054 -27.528195038595 -73.067079324161
3.407111111000 -18.838302810754 -129.320595868763 -2.904007385276 127.024332602962 -3.097553869862 128.009179594829 -27.741419058450 -73.427331528611
3.407288888000 -18.755349528178 -128.924269462118 -2.897534749170 127.023330271474 -3.090424470515 127.973810126379 -27.770916140585 -73.067808915003
3.407466666000 -18.936872398112 -128.990394165426 -2.909320843350 126.885625989724 -3.152608727712 127.715825087459 -27.150713253067 -70.862828426450
3.407644444000 -19.024098670002 -129.501088265461 -2.935649598868 126.816203585112 -3.101401188919 127.849280194047 -27.450618057303 -71.824323259078
3.407822222000 -18.781219098822 -129.434635748888 -2.892803881141 126.905336951641 -3.079482542318 127.860939099593 -27.822597160720 -73.243100866705
3.408000000000 -18.859740265391 -129.427077084609 -2.895881455122 126.806365026595 -3.083359926757 127.826840728988 -27.752343606664 -72.061093263855
3.408177777000 -18.945830530934 -129.148296786881 -2.903404689283 126.842248709121 -3.133618336707 127.630222973506 -27.205139704560 -70.761644388910
3.408355555000 -19.200474279853 -130.192691729457 -2.951110429842 126.474069911594 -3.094485708631 127.594040267560 -27.491032718162 -70.200512059206
3.408533333000 -18.882908134877 -129.342943100830 -2.899498711307 126.751122623392 -3.084606077169 127.690075496185 -27.772638809024 -72.271196429968
3.408711111000 -18.853345052864 -129.477623042284 -2.892199535882 126.726481476119 -3.080161176301 127.693192392919 -27.694009836719 -71.464327766240
3.408888888000 -18.906631879707 -129.637113624119 -2.905558368968 126.708786360708 -3.074083789255 127.684456845771 -27.661988799519 -71.727115097170
3.409066666000 -18.918410218642 -129.870251564080 -2.894685295243 126.627294501662 -3.078150997572 127.603575824148 -27.567881848516 -71.190468741423
3.409244444000 -18.961550609827 -129.755470122384 -2.900410872694 126.621442672597 -3.072419810016 127.587161499912 -27.696808329772 -71.373968175255
3.409422222000 -18.867696762782 -129.351025013998 -2.883169676048 126.604727592505 -3.069812128559 127.597964263446 -27.790395194153 -71.434059943341
3.409600000000 -18.895332953564 -129.321004393446 -2.893646880767 126.577259158914 -3.075790445697 127.614057941560 -27.665878695710 -70.753710430705
3.409777777000 -18.941186740165 -129.721493974653 -2.887430041359 126.541009520893 -3.056878880787 127.454731554244 -27.668364864560 -71.090161862877
3.409955555000 -18.949748421923 -129.754385648930 -2.883586853459 126.455301974726 -3.070820912616 127.507861376514 -27.590324290141 -70.483312415281
3.410133333000 -18.956662328968 -129.769460225932 -2.894227433266 126.491234771884 -3.069786204756 127.514230590357 -27.621048388674 -70.834696000332
3.410311111000 -18.931237727313 -129.822262265463 -2.893005527895 126.387367857890 -3.061957589434 127.475567569296 -27.613628840398 -70.368780738816
3.410488888000 -18.951133075466 -129.929016097721 -2.882734214598 126.412330700417 -3.058150422960 127.448274628132 -27.612860591373 -70.129875389395
3.410666666000 -19.034882504397 -129.672167702487 -2.892049721912 126.362498321783 -3.065203199871 127.424338342121 -27.550147265165 -69.611620714590
3.410844444000 -18.969569035672 -129.886361022272 -2.885696879801 126.331510432934 -3.054290976861 127.362132856337 -27.675083916207 -69.866218552078
3.411022222000 -19.013152729552 -130.039786597199 -2.886705160581 126.243746233483 -3.061164493723 127.276546648792 -27.604011499573 -68.787950150362
3.411200000000 -19.052390063478 -129.979411231924 -2.887794132729 126.207960057630 -3.052254151718 127.258331788970 -27.547749275238 -69.168558110779
3.411377777000 -19.025209412794 -129.928997155521 -2.883352428064 126.247409251517 -3.054954824480 127.294901573579 -27.552430270554 -68.976091656915
3.411555555000 -19.077829272499 -129.921773306579 -2.889493410072 126.233099399886 -3.053977279472 127.169875726077 -27.618453032120 -68.145469593582
3.411733333000 -19.064365249993 -130.174390356486 -2.881409948801 126.137173945455 -3.052816357162 127.199984482494 -27.591965309648 -68.770210950439
3.411911111000 -19.084619169919 -130.555514445839 -2.889477490053 126.094240281586 -3.049934082855 127.104989691498 -27.447528595058 -67.967735876435
3.412088888000 -19.059437007132 -130.307108952906 -2.877898017159 126.051463169848 -3.049696680098 127.129165674041 -27.570585784072 -68.264450757314
3.412266666000 -19.138815053762 -130.683267180726 -2.891027053182 126.059892619696 -3.042769592933 127.090884748419 -27.533864703510 -68.259798192585
3.412444444000 -19.146685363229 -130.581055307059 -2.886479629940 126.050384439413 -3.051542161334 126.963688865692 -27.430981736757 -68.085181698911
3.412622222000 -19.122596932938 -130.473335213887 -2.884062211372 125.962727157167 -3.043283904542 126.933384293367 -27.530835947271 -67.723932761660
3.412800000000 -19.134423568057 -130.433610215879 -2.882141078103 125.953475050044 -3.048067203458 126.874687365424 -27.503266984352 -67.264848098025
3.412977777000 -19.168048157054 -130.651185388707 -2.885728991225 125.873654162570 -3.049390046771 126.861399807937 -27.523204390393 -67.412941767417
3.413155555000 -19.134066415789 -130.428558921295 -2.878171866165 125.843667560542 -3.046259299422 126.853683040798 -27.419633017810 -66.616637198415
3.413333333000 -19.184231598468 -130.647749073008 -2.880040599235 125.840671311919 -3.047000034237 126.872433463312 -27.345280893378 -66.758107463803
3.413511111000 -19.142850268322 -130.821574341220 -2.880171938384 125.747133534666 -3.036043439149 126.802422347900 -27.351062120298 -66.566635506684
3.413688888000 -19.190240338303 -130.703527004313 -2.887209958857 125.751470854154 -3.036837757153 126.784617214959 -27.363181540979 -67.228259717099
3.413866666000 -19.177536288404 -130.062735335058 -2.873236203108 125.802506365530 -3.036368423605 126.714076254116 -27.439112994280 -66.286227017986
3.414044444000 -19.223820728038 -130.734781159345 -2.885780598478 125.646620352838 -3.043263173430 126.721554012344 -27.332501779508 -65.487470296763
3.414222222000 -19.191366185431 -130.477187099822 -2.869844208707 125.678768370981 -3.029175290345 126.688522673573 -27.421374056688 -66.458985040531
3.414400000000 -19.221978453174 -130.941376213549 -2.885019821150 125.663613847299 -3.028221501417 126.586492010286 -27.406928290351 -64.790717144016
3.414577777000 -19.194763128380 -131.076776832548 -2.871395543917 125.556987929706 -3.025082064492 126.584871866138 -27.400711984382 -65.356509833272
3.414755555000 -19.213694533415 -131.474200977462 -2.883386801954 125.489936848188 -3.037050513106 126.611750295037 -27.214874058884 -65.239310626978
3.414933333000 -19.316850379723 -131.424843555993 -2.888090446714 125.427604082306 -3.036666137759 126.461477468698 -27.131532926882 -64.897289305140
3.415111111000 -19.236546168816 -131.192444083119 -2.886227785752 125.468783260205 -3.021607213681 126.585273053322 -27.295033327327 -65.237853185582
3.415288888000 -19.232004403530 -131.129659801982 -2.869054665940 125.475588002740 -3.022689479578 126.520956482345 -27.311934654903 -64.815533821225
3.415466666000 -19.211759020632 -131.192579553730 -2.877697796784 125.413513384295 -3.027495362037 126.420892298245 -27.328010250236 -64.473851938935
3.415644444000 -19.245418594451 -131.351036781355 -2.875633615505 125.387739007027 -3.025236768072 126.437834706553 -27.215292560059 -64.381356114217
3.415822222000 -19.225320464233 -131.373996069443 -2.876018549354 125.335249343059 -3.015227827967 126.427957206783 -27.226052365157 -64.879606841841
3.416000000000 -19.253095893711 -131.240862403212 -2.876663965080 125.366527120482 -3.023456536861 126.327627894918 -27.274104667168 -64.223057930470
3.416177777000 -19.264985055765 -131.210615393212 -2.875210671790 125.311433919537 -3.022493312258 126.332971682196 -27.239631929889 -64.641715223242
3.416355555000 -19.238467957737 -131.642269967946 -2.866746955234 125.290552449360 -3.018583464458 126.300570142648 -27.234092555498 -64.156478884038
3.416533333000 -19.339450821874 -131.845955755176 -2.875539133666 125.192523650814 -3.007947317879 126.227420423792 -27.189270284870 -63.553421166889
3.416711111000 -19.271885618349 -131.520726330914 -2.876801704167 125.170928303549 -3.014432988145 126.231373587942 -27.109638192852 -63.863920551457
3.416888888000 -19.309692838224 -131.529233347372 -2.874584631525 125.135777533081 -3.018026842890 126.237246363571 -27.138446228047 -63.477097431897
3.417066666000 -19.348849821249 -131.309779323185 -2.873886053764 125.183110314646 -3.004842894991 126.107650859746 -27.137943847198 -63.348238787576
3.417244444000 -19.324783181042 -131.721898009192 -2.877007910986 124.984588536536 -3.018984941908 126.085722967766 -27.034920772294 -62.785882115858
3.417422222000 -19.368543538835 -131.752161503730 -2.871127500085 125.059809136936 -3.002402992969 126.099147514904 -27.095228200775 -63.257660902147
3.417600000000 -19.352216027585 -132.025205952204 -2.871029042359 124.973385403215 -3.003160995801 126.057841298680 -27.113443445060 -62.629405225119
3.417777777000 -19.294186490025 -132.013176242676 -2.866764764329 124.969503663178 -2.995097535428 126.033601084373 -27.002671580865 -62.627375061375
3.417955555000 -19.311221368320 -131.790656417811 -2.863015010041 124.963744361247 -2.994489400764 126.045377098088 -27.025554590086 -62.718307914820
3.418133333000 -19.440531624762 -132.348946818178 -2.877467173600 124.794774971942 -2.998364418666 125.971087500204 -27.001402010669 -61.723544491058
3.418311111000 -19.322868706801 -132.235932558608 -2.871784848679 124.840697823315 -2.989039315537 125.926726550953 -26.949274514758 -62.744442546422
3.418488888000 -19.439490875237 -132.586012297615 -2.876678736622 124.740707300146 -2.988182737803 125.840276274106 -26.934989382519 -61.691259945213
3.418666666000 -19.385165815679 -131.935421852420 -2.862171669396 124.800974176630 -2.990264016234 125.777864854203 -26.965136147853 -61.852850617518
3.418844444000 -19.483057391721 -132.590186209157 -2.876037381012 124.681404583573 -2.997539418514 125.709633381923 -26.870376141306 -61.700115794377
3.419022222000 -19.358249622863 -132.538382713498 -2.865020892571 124.662322844574 -2.993516676418 125.795290023657 -26.947144094352 -61.493482183432
3.419200000000 -19.427912652159 -132.269832286546 -2.866030438871 124.746962568566 -2.983483825987 125.742105108000 -26.871659722655 -61.526223407140
3.419377777000 -19.429110780089 -132.226807121465 -2.869322854625 124.636575450615 -2.994490590483 125.701536059469 -26.838358374293 -61.116568919739
3.419555555000 -19.425991527305 -132.573559341587 -2.865429051359 124.540537341586 -2.992078527790 125.702050967868 -26.815112504282 -60.952234000713
3.419733333000 -19.495106832526 -132.569611219208 -2.871052662813 124.473443988890 -2.986614354607 125.652021233561 -26.756322230481 -60.370353835125
3.419911111000 -19.431210693944 -132.379879717351 -2.856601344095 124.474566996955 -2.979561161491 125.635212761167 -26.848972135186 -60.631329192846
3.420088888000 -19.499110614855 -132.551946446586 -2.869761398684 124.468014201080 -2.987739592482 125.567506445499 -26.754639465818 -60.397798181605
3.420266666000 -19.495183797482 -132.940286138297 -2.865017967859 124.434644426164 -2.978716968030 125.503702737821 -26.724290617025 -60.467869681321
3.420444444000 -19.559865715011 -132.798773462992 -2.874930185671 124.393309560644 -2.981343933173 125.436173458396 -26.698615948176 -59.908346162870
3.420622222000 -19.496943691911 -133.099295266351 -2.863882265032 124.306435715619 -2.973326109649 125.464980837417 -26.717946319927 -60.233414142461
3.420800000000 -19.582595347086 -132.963876533853 -2.870978407780 124.316044282625 -2.976689808538 125.398118141072 -26.599579081711 -59.571800234848
3.420977777000 -19.755933529322 -133.435791488947 -2.908410797797 124.180712704577 -2.992488547602 125.242009448895 -26.346842168886 -59.421865750340
3.421155555000 -19.595756325956 -133.260095268437 -2.873485051673 124.218860107166 -2.973102704355 125.289547547866 -26.586064709093 -59.292452610931
3.421333333000 -19.664886371457 -133.570539923111 -2.881212488136 124.108965527836 -2.969893603685 125.221008058424 -26.537384374217 -59.330403353628
3.421511111000 -19.596459553574 -133.317553465482 -2.870428386003 124.146730049653 -2.965629721467 125.265540539435 -26.578829366591 -59.145020497282
3.421688888000 -19.530644742580 -133.142623225847 -2.856850778447 124.126269296365 -2.959405976719 125.285578607766 -26.619924211809 -59.219518951334
3.421866666000 -19.637236691827 -132.995336725483 -2.868615995294 124.118271999075 -2.969470539043 125.251271641218 -26.521806013451 -59.124299336914
3.422044444000 -19.601034989074 -133.669735292490 -2.865171115229 124.046379869208 -2.975510619332 125.104013173089 -26.415247239679 -58.727988900227
3.422222222000 -19.700751402748 -133.949175407569 -2.876537650438 123.947007784611 -2.961568400339 125.150664006902 -26.513916475491 -58.405503200920
3.422400000000 -19.610665808620 -132.988768827238 -2.860210939425 124.104821323026 -2.954377405487 125.086513591830 -26.419795776868 -59.050105955496
3.422577777000 -19.648022766883 -133.746010995820 -2.868675563219 123.971082686496 -2.955343987119 125.029388945151 -26.458771532445 -58.476728442399
3.422755555000 -19.687311352586 -133.436989046349 -2.868045591909 123.928807113640 -2.971059738483 124.953500739761 -26.328149728020 -58.266248532378
3.422933333000 -19.701256629840 -133.690389657573 -2.870917327192 123.875634669879 -2.956982767182 124.944918905196 -26.373236632127 -58.306436132013
3.423111111000 -19.659305476616 -133.795517468784 -2.857276462794 123.857014598215 -2.957146497268 125.007575002581 -26.358685185691 -58.130537668503
3.423288888000 -19.739595831443 -134.146546975589 -2.864366144454 123.706549535714 -2.961593937850 124.810406979216 -26.264604648488 -57.494412816243
