# GHZ S DB R 50.000000000000
3.400000000000 -18.484033914460 113.025787671983 -17.171646853887 149.818920878491 -17.009951182398 155.707235263289 -10.328268626665 -13.096231399549
3.400177777000 -18.607175921398 113.030672568367 -17.190605431645 149.655997768644 -17.022320123512 155.397800119445 -10.315472155509 -13.345052966020
3.400355555000 -18.623806570550 112.559963634828 -17.202750103206 149.508074961346 -17.015397822235 155.256851047586 -10.313587606731 -13.454130588343
3.400533333000 -18.624954703187 112.536358017747 -17.204721767403 149.313746947197 -17.026766910803 155.275034677061 -10.318429412230 -13.577213715167
3.400711111000 -18.613239150179 112.393196517046 -17.215842660344 149.170279375084 -17.023992657215 155.166096866407 -10.311470239410 -13.678134162915
3.400888888000 -18.633564910562 112.726988404014 -17.207635260151 149.185450814400 -17.014995591014 155.078889528988 -10.306291754277 -13.704148347193
3.401066666000 -18.636680043776 112.241240350851 -17.221443495782 149.038587761974 -17.030857128797 154.869561819985 -10.312866575383 -13.780576672185
3.401244444000 -18.588027982914 112.023276973884 -17.227555010227 148.911694856030 -17.019736026578 154.946642308788 -10.319002606740 -13.840678491442
3.401422222000 -18.601124912882 112.210831416546 -17.233076323120 148.894846513263 -17.031304983478 154.888971766723 -10.316307566381 -13.881924231276
3.401600000000 -18.653785083059 112.135700149385 -17.248997101909 148.913086397483 -17.042845240035 154.851362770726 -10.327953362113 -13.911789072548
3.401777777000 -18.670124974435 112.507306133879 -17.237223998888 148.918855378612 -17.017271132847 154.896604763422 -10.319243040129 -13.953967591534
3.401955555000 -18.657457626680 112.535018616371 -17.235392247254 148.878269995027 -17.027590709531 154.789256988623 -10.317204879553 -14.071723494623
3.402133333000 -18.641710680079 113.025126438117 -17.228850645109 148.784523090121 -17.012649794810 154.884145290781 -10.321539247507 -14.052852451962
3.402311111000 -18.627774863029 113.058460941225 -17.229251614070 148.831010086132 -17.017584720356 154.703732350689 -10.330122116476 -14.100811533847
3.402488888000 -18.676616742386 112.683216250877 -17.239449183369 148.625116582703 -17.029281754632 154.678409866236 -10.332006939475 -14.149337371178
3.402666666000 -18.647722759816 112.701552387189 -17.241814762676 148.806554983540 -17.024377884841 154.788451882685 -10.342044036650 -14.124644632611
3.402844444000 -18.710041569051 112.747622525665 -17.250433429927 148.801168026784 -17.021818179739 154.679628074610 -10.334640925430 -14.171076105680
3.403022222000 -18.679038494982 112.944900766243 -17.247709503524 148.745057590207 -17.035337313869 154.604451390775 -10.340122304201 -14.232536405285
3.403200000000 -18.690442128812 112.801246676084 -17.263230139379 148.631228871066 -17.044428633418 154.483720570630 -10.348856307877 -14.374332460189
3.403377777000 -18.717753391701 112.369057402370 -17.268888095805 148.612721190492 -17.042661447222 154.561946711488 -10.346358737065 -14.338086111806
3.403555555000 -18.722422138409 112.536697101456 -17.278639915022 148.685728517250 -17.047402257510 154.533857764728 -10.356772558245 -14.402724717069
3.403733333000 -18.727685073571 111.757521480974 -17.288407558460 148.541693416318 -17.056979351918 154.292660987505 -10.356912388468 -14.490026507479
3.403911111000 -18.745548725617 112.297068872812 -17.297189856399 148.588894997816 -17.066505697010 154.331398100200 -10.363705637208 -14.519669391933
3.404088888000 -18.751533730419 111.743626606230 -17.316312628273 148.295164647092 -17.069376385986 154.081379625117 -10.371949212203 -14.578312175307
3.404266666000 -18.737142535285 111.997688031757 -17.304909212243 148.334034012490 -17.057787858147 154.126738214965 -10.362947078652 -14.584166431223
3.404444444000 -18.710773079350 112.181990145182 -17.305882390748 148.234918424034 -17.055692189250 154.090870892716 -10.362442252503 -14.578329151849
3.404622222000 -18.690156684401 112.361488936023 -17.299485763452 148.197788203738 -17.047491103461 153.976327170802 -10.373822733632 -14.682647482215
3.404800000000 -18.727142639528 112.521945785184 -17.299125241337 148.111552979549 -17.058324494269 153.902608073748 -10.365692006098 -14.760544480712
3.404977777000 -18.752156424949 112.161379550350 -17.316113382261 148.075072432179 -17.060515377925 153.903103062247 -10.379247781981 -14.882833908951
3.405155555000 -18.752164928245 112.210053420555 -17.309351101489 148.145042952471 -17.057402257887 153.877448481921 -10.377694001646 -14.855490456831
3.405333333000 -18.787999237289 112.175156427202 -17.323186542232 148.048763003897 -17.108537870688 153.772296972140 -10.375637129755 -14.862241940617
3.405511111000 -18.774763817291 112.509610090234 -17.370622710278 147.989971645221 -17.079489482201 153.859504084601 -10.383028145544 -14.832211112394
3.405688888000 -18.779879160900 111.895395694293 -17.335437062189 148.011060849092 -17.082726855816 153.697575880044 -10.386954372472 -14.913031248888
3.405866666000 -18.756791663329 112.284676517407 -17.350649659105 147.965229488452 -17.082316636349 153.710097036401 -10.386963631094 -14.983904216650
3.406044444000 -18.766105781568 112.044433327091 -17.352671223189 147.973450208501 -17.088174039429 153.655082099075 -10.401188014578 -15.066881941293
3.406222222000 -18.814140599037 112.439495256024 -17.398271082588 147.775755653159 -17.148160151198 153.513880705478 -10.393886494231 -15.065397949515
3.406400000000 -18.790346585206 111.905910492970 -17.368099991426 147.842514491032 -17.077344753611 153.591640791752 -10.404669375443 -15.053284372689
3.406577777000 -18.790750526356 112.227508234608 -17.346827515731 147.859681449102 -17.080746838275 153.433139757185 -10.399973701973 -15.167446643127
3.406755555000 -18.781073427070 111.967074098711 -17.366007952199 147.685864525340 -17.110545635562 153.390577467615 -10.404088471642 -15.259875244530
3.406933333000 -18.774789670555 111.839625812761 -17.394893895955 147.690298810655 -17.111341447721 153.272707155310 -10.416013649785 -15.279281931040
3.407111111000 -18.822802636951 111.810169958800 -17.373041711961 147.734732617532 -17.088077490409 153.337416704796 -10.418469477668 -15.318612838207
3.407288888000 -18.827322472816 112.277215403973 -17.366337848755 147.740720095759 -17.087356936271 153.283985892541 -10.418408108369 -15.345740236320
3.407466666000 -18.844924147301 111.963010797559 -17.383719177308 147.570475974863 -17.147030461491 153.120950554672 -10.415433866235 -15.409980514190
3.407644444000 -18.818833715038 111.930147694787 -17.416119371323 147.473037708078 -17.120422035325 153.043286433327 -10.420637368356 -15.519988283262
3.407822222000 -18.816282397556 111.573370374292 -17.406123630085 147.524876065564 -17.116847664335 153.000862713013 -10.430944480546 -15.528221801435
3.408000000000 -18.841302772213 111.559127470221 -17.410768557405 147.450817704516 -17.122933117390 153.008984029368 -10.432809930764 -15.578272832256
3.408177777000 -18.876953983728 111.179816521625 -17.429507162309 147.453845494232 -17.174904917633 152.807822690008 -10.421628773439 -15.622494423409
3.408355555000 -18.813679693525 111.557892279158 -17.489205370084 147.181313352001 -17.136154018058 152.850901170174 -10.428540684322 -15.565561162431
3.408533333000 -18.861203894475 111.727886789311 -17.405351936867 147.344945904262 -17.110616239975 152.771320190360 -10.442612296965 -15.775832909838
3.408711111000 -18.834282614669 111.616584598647 -17.407445055664 147.334391593295 -17.100219726630 152.715111532527 -10.437209035872 -15.764173835817
3.408888888000 -18.785171195384 112.373961389285 -17.394015832671 147.241290806041 -17.085634642655 152.767416235714 -10.442804189110 -15.803230256599
3.409066666000 -18.817774678327 111.972371305511 -17.413293410851 147.183360746535 -17.125262931650 152.637255403272 -10.441983423822 -15.832347618351
3.409244444000 -18.857797612554 111.470171117714 -17.418095813292 147.243456571134 -17.114833829024 152.593083532086 -10.446787734902 -15.884405196123
3.409422222000 -18.851870108801 111.728725047250 -17.424626851220 147.114222100474 -17.127365675676 152.533619120509 -10.461915470272 -15.856164822093
3.409600000000 -18.908556001927 111.670747649627 -17.440432340702 147.164255070329 -17.129325173626 152.520353718861 -10.451315817568 -15.936650065387
3.409777777000 -18.897885285727 111.376403389273 -17.442394719518 147.093464291581 -17.129647798700 152.483272195676 -10.462167122673 -16.062047386161
3.409955555000 -18.898167849365 111.629992336788 -17.434810894788 147.135875398361 -17.130935312780 152.499144498058 -10.459410105205 -16.034294590255
3.410133333000 -18.862448056848 111.987875320477 -17.439105453166 147.162396544696 -17.130754663680 152.423126380292 -10.478107515575 -16.148204492521
3.410311111000 -18.872404194381 111.442311513782 -17.453966990722 147.021853125654 -17.128715897837 152.230521617388 -10.470550048166 -16.162659107946
3.410488888000 -18.880740854025 111.374923146409 -17.458648077191 146.905098725983 -17.157439740351 152.259429463549 -10.470522645492 -16.178386967896
3.410666666000 -18.922458907356 110.675580314385 -17.471700358867 146.946926965049 -17.154568483302 152.150196301600 -10.475688478595 -16.205936100991
3.410844444000 -18.956385899187 111.427401213820 -17.473238003969 146.814171554809 -17.158492176769 152.109329021104 -10.481069920566 -16.290763489594
3.411022222000 -18.935389095913 111.378549510081 -17.473852672783 146.732854457348 -17.143522182696 151.957553531924 -10.474628948932 -16.314445810497
3.411200000000 -18.936002410572 111.367931299671 -17.477182565671 146.811538112244 -17.141274532944 151.992365214592 -10.479871333155 -16.432735639043
3.411377777000 -18.878583884463 111.568864766393 -17.471099741794 146.706851508192 -17.142739056017 151.983581259335 -10.485426225368 -16.511123398596
3.411555555000 -18.926576052768 111.473998752811 -17.471450111455 146.693328054982 -17.145509948928 151.859631538160 -10.478254171893 -16.381651186763
3.411733333000 -18.895900300109 111.312400387597 -17.478737275752 146.601090091684 -17.157242507536 151.846950752682 -10.502824790025 -16.501448547549
3.411911111000 -18.897694831340 110.941620586120 -17.502827178056 146.522461100688 -17.179091459913 151.651312332023 -10.502763097098 -16.526960378262
3.412088888000 -18.962585960009 110.815229654429 -17.504833486088 146.551201698791 -17.178218160730 151.688691392206 -10.509640655136 -16.595122729181
3.412266666000 -18.919015825453 110.576071333415 -17.519843416868 146.549223742656 -17.183605990606 151.489645973954 -10.511395718278 -16.649940351743
3.412444444000 -18.858373896020 110.401978871950 -17.518102252583 146.375308827289 -17.161844853286 151.579989984654 -10.504963400467 -16.729702746534
3.412622222000 -18.955042884556 111.100902179849 -17.500388748610 146.402537415334 -17.166974913123 151.563344525264 -10.511824196391 -16.706729833981
3.412800000000 -18.939268773409 111.196046419754 -17.503298198808 146.367394922860 -17.164707956961 151.477839783137 -10.508562224438 -16.691363099293
3.412977777000 -18.953998324944 111.106793723450 -17.513050895584 146.437927522064 -17.159304169783 151.433940109633 -10.513246330750 -16.784597502304
3.413155555000 -18.975563169959 111.035710257869 -17.519926632389 146.332009179144 -17.178735680553 151.295103010030 -10.521897850422 -16.845002250826
3.413333333000 -18.989699211519 110.847615194442 -17.527068276491 146.286980518883 -17.177521282337 151.314902838005 -10.512851196350 -16.942863692502
3.413511111000 -18.986439226883 110.899574795999 -17.534926134532 146.261887290439 -17.181727110487 151.234551023009 -10.516371563932 -17.031684113993
3.413688888000 -19.019380050410 111.015110833690 -17.537891066667 146.245705621023 -17.188529102961 151.311224703639 -10.531129092633 -17.090072939598
3.413866666000 -19.073266055112 110.972653824430 -17.542967657460 146.125108789194 -17.194540518666 151.127284392619 -10.523388501365 -16.992903246137
3.414044444000 -19.027102375954 110.804594579941 -17.566582981712 146.147989996401 -17.196410380304 151.140459017076 -10.528808162046 -17.030643459116
3.414222222000 -19.094385763220 110.748400647867 -17.555092592411 146.145749912918 -17.208059465855 151.092401421349 -10.545736272685 -17.103152995524
3.414400000000 -19.048393186426 110.813009406816 -17.565461372182 146.057059651710 -17.200787141709 151.079812935084 -10.529968649646 -17.151309229919
3.414577777000 -19.074362259919 110.830160383938 -17.563306137633 146.074043360097 -17.211082020021 150.971882506723 -10.549010788152 -17.226445030784
3.414755555000 -19.024314339288 110.423423041317 -17.585861818755 145.964209880276 -17.234457160600 150.796577883885 -10.543572742717 -17.294306779181
3.414933333000 -19.099199463079 110.617980393841 -17.588609847667 145.927845414555 -17.221646687237 150.857799935871 -10.546497858102 -17.399619766540
3.415111111000 -19.059035655531 110.953800176319 -17.578792651686 145.803472470346 -17.213805817037 150.785175613854 -10.545989356812 -17.394439255460
3.415288888000 -19.042320938927 110.712346854923 -17.571148086966 145.951958546919 -17.201992353661 150.763531431989 -10.549778765020 -17.426292503086
3.415466666000 -19.078064390673 111.385679174551 -17.560162055580 145.842968250942 -17.212940907323 150.709862304455 -10.564084847964 -17.459502575832
3.415644444000 -19.054868878693 110.989733802732 -17.577349912768 145.822546627827 -17.199623760222 150.591274896403 -10.548227868471 -17.473331777992
3.415822222000 -19.079515774859 111.309649942124 -17.574471431252 145.725885751039 -17.206456155920 150.586579517383 -10.567093495866 -17.573691188939
3.416000000000 -19.118492491904 110.770710962245 -17.595281913950 145.724585025906 -17.232888619736 150.528229095711 -10.568495310520 -17.538008547388
3.416177777000 -19.127808653304 110.473601214723 -17.613090264043 145.790381428070 -17.242205307616 150.440632271285 -10.566652801531 -17.668127550156
3.416355555000 -19.041623255180 110.033381318711 -17.623903074875 145.603710056392 -17.237910227177 150.278212664885 -10.577735045735 -17.725022647507
3.416533333000 -19.032824651184 110.158374206057 -17.630339089126 145.472775185829 -17.246975823123 150.259440244943 -10.567337633774 -17.720225458878
3.416711111000 -19.060190558007 110.384977165574 -17.628271988654 145.506240795525 -17.237696691125 150.155571893697 -10.580916408949 -17.777384983040
3.416888888000 -19.165895350941 110.550759757966 -17.608448146661 145.599792006319 -17.238865280404 150.259860028879 -10.576971239386 -17.802887375325
3.417066666000 -19.156275394619 110.323441982681 -17.629654730746 145.613886597491 -17.255679786829 150.197327324057 -10.581505324979 -17.870856844071
3.417244444000 -19.172778682786 110.338211571746 -17.637097604597 145.516171463504 -17.250687409630 150.168697439732 -10.594879631648 -17.902635051791
3.417422222000 -19.159260091070 110.273339979770 -17.632071358539 145.528250911834 -17.249565163760 150.061771747885 -10.588274876381 -17.954211198489
3.417600000000 -19.142030979088 110.397720283767 -17.639718104572 145.419813136391 -17.247898831409 150.058474281993 -10.606945759354 -17.935599204079
3.417777777000 -19.186543708214 110.582069359482 -17.631646348044 145.372129714613 -17.250836121347 149.954213103900 -10.589883523388 -18.121209768812
3.417955555000 -19.193526553203 110.813405382118 -17.642259252808 145.341791306028 -17.255517091185 149.983540567726 -10.596162229199 -18.040801580315
3.418133333000 -19.144295793603 110.689795056568 -17.658062653791 145.143613195958 -17.258789216366 149.830501334243 -10.602938803598 -18.129025272053
3.418311111000 -19.195254814546 110.810704396308 -17.645713385233 145.255782227123 -17.272471352639 149.907601180033 -10.610890692397 -18.267191519038
3.418488888000 -19.222684411656 110.250751864029 -17.660387649407 145.318720345698 -17.262091381434 149.835603168567 -10.609453767408 -18.237161806849
3.418666666000 -19.221386954456 110.304044505578 -17.660784071058 145.224043783369 -17.278300636541 149.729967633501 -10.611808023239 -18.302666619936
3.418844444000 -19.138329828374 109.706525422367 -17.694990111911 144.971521773466 -17.298324404341 149.496967111323 -10.628842032491 -18.276265169782
3.419022222000 -19.221755321177 110.485309881054 -17.667174146553 145.096530967914 -17.275595196848 149.568428034369 -10.615920045452 -18.325329023631
3.419200000000 -19.163871661695 109.913165355998 -17.689506060233 145.053277747987 -17.277648855560 149.554703337356 -10.612671061752 -18.423886432371
3.419377777000 -19.229603329741 110.392311493140 -17.674076754454 145.030172733007 -17.280241908907 149.518776267283 -10.618544958063 -18.409063744403
3.419555555000 -19.164160224210 110.268137010303 -17.686649996388 144.996089028398 -17.278416864429 149.496697451318 -10.621278276409 -18.458247187179
3.419733333000 -19.208892633654 110.219004506307 -17.695881535522 144.953197387597 -17.289914882865 149.422401020712 -10.622734344773 -18.489473127629
3.419911111000 -19.254989024504 110.073439241600 -17.700844995242 144.953818124601 -17.299002696982 149.329744275666 -10.626619878961 -18.522658463826
3.420088888000 -19.206494981704 109.857592362520 -17.704136152976 144.763961851555 -17.304092528703 149.168982328087 -10.634018300635 -18.569130979709
3.420266666000 -19.213468263460 109.836630664385 -17.713139383556 144.841432536786 -17.311555377661 149.151885546307 -10.639857657870 -18.654889479493
3.420444444000 -19.274832230874 109.989567823144 -17.724987895822 144.703065029850 -17.310082061385 149.150624747036 -10.648722881298 -18.670862698606
3.420622222000 -19.294769721202 110.224221425161 -17.706400556139 144.787042943440 -17.308933296973 149.137740672860 -10.644891409253 -18.728724505000
3.420800000000 -19.210422150877 109.495501558448 -17.727002338136 144.619974045941 -17.323502607900 148.732299193506 -10.641004761197 -18.836697253091
3.420977777000 -19.194214564505 109.789839482596 -17.780647198438 144.341691864829 -17.340440774343 148.736855942060 -10.652705842971 -18.798351504199
3.421155555000 -19.216740301781 109.484038525188 -17.750004748102 144.486022656293 -17.327749316602 148.741296761723 -10.651957630418 -18.836176142330
3.421333333000 -19.203642517115 109.730728783130 -17.752317218923 144.359568270341 -17.333989802455 148.634649336595 -10.665274942373 -18.957132569022
3.421511111000 -19.222775832797 109.672395020749 -17.733933831193 144.437618739454 -17.327038670318 148.635557797984 -10.659658727928 -18.979145890183
3.421688888000 -19.217763624442 109.441588851229 -17.749469552963 144.325846737722 -17.321110053268 148.555047266491 -10.664540217533 -18.995376471381
3.421866666000 -19.303778299135 110.096823558992 -17.727617531345 144.458838305298 -17.314206170052 148.663325367449 -10.666522412564 -19.053081732685
3.422044444000 -19.311632445449 110.249277198381 -17.733969834560 144.424240475886 -17.326445829792 148.678833993788 -10.660324176814 -19.085060229302
3.422222222000 -19.283156444698 110.018015413831 -17.754796246873 144.354098845013 -17.330781606226 148.650311840807 -10.671010425252 -19.168393235369
3.422400000000 -19.324719616604 109.628441661354 -17.764213883533 144.338637790968 -17.345594452652 148.445628982877 -10.673312800213 -19.270260750753
3.422577777000 -19.305355179061 109.798990746521 -17.771096949528 144.305182630030 -17.347055790402 148.485331719530 -10.678940242568 -19.213195606187
3.422755555000 -19.353127863373 109.452688987879 -17.770154740336 144.276774754775 -17.369933622287 148.284048753676 -10.677958395027 -19.304729439404
3.422933333000 -19.362180036847 109.118614759017 -17.786015060399 144.154855658710 -17.357950159599 148.287755401278 -10.685683381702 -19.367020212500
3.423111111000 -19.362725319602 109.354851964604 -17.788220048011 144.284877424669 -17.359189942797 148.313138172259 -10.679389632231 -19.407682716106
