# GHZ S DB R 50.000000000000
3.400000000000 -11.960313587023 -14.192168592032 -12.648065879314 172.152809328591 -12.919991925556 163.814166009354 -22.483821404713 163.812729756724
3.400177777000 -11.982390584407 -14.439053526771 -12.631116167408 171.898551421312 -12.924901014782 163.619000208194 -22.502164210979 163.079144026331
3.400355555000 -11.990071813264 -14.595883019551 -12.628484770274 171.654202763354 -12.933081744695 163.473954377733 -22.511868275100 162.406667747948
3.400533333000 -12.016900988933 -14.469174574964 -12.632835292337 171.628014138846 -12.933550747326 163.453843967153 -22.525672335219 162.234377216776
3.400711111000 -12.047687939531 -14.467884025632 -12.630572718423 171.478274684469 -12.944796799708 163.366769424703 -22.492378451157 161.706538133445
3.400888888000 -12.059539286224 -14.519114655551 -12.630775594034 171.378602356290 -12.940015199781 163.347567610382 -22.503781463495 161.344234911195
3.401066666000 -12.056775745142 -14.592713930319 -12.626592047881 171.233545408009 -12.947663712049 163.237852515261 -22.525909097808 160.842901913541
3.401244444000 -12.096474013744 -14.408035636214 -12.626712075590 171.075549935336 -12.952433322470 163.202298271516 -22.518819075468 160.992536959665
3.401422222000 -12.108265894227 -14.415166704557 -12.641445896622 171.103587675537 -12.960011790026 163.162520161780 -22.463841528279 160.824371253841
3.401600000000 -12.120657265232 -14.532701195135 -12.626739200974 171.109958496831 -12.964985974136 163.079687777817 -22.504180284902 160.587517520028
3.401777777000 -12.158748114191 -14.493708477721 -12.633173928231 170.954454053808 -12.962473486980 163.076579653503 -22.518886219567 160.340439809712
3.401955555000 -12.165968623732 -14.601282984681 -12.629245636120 170.923570357494 -12.968971639038 163.023946846945 -22.486000026115 160.262340177895
3.402133333000 -12.170313684341 -14.635395666601 -12.635887921698 170.753915192346 -12.968869300484 162.985306725552 -22.458885780089 160.084894423767
3.402311111000 -12.179328699073 -14.675189012552 -12.636031407288 170.804787094759 -12.975783444570 162.905112993163 -22.485484161003 159.650486092503
3.402488888000 -12.200357494018 -14.710894791275 -12.624893262246 170.635610592708 -12.978718132188 162.881143816594 -22.475164180304 159.793065763179
3.402666666000 -12.204902098931 -14.896822819013 -12.629692006533 170.572019268196 -12.981925925881 162.753951861602 -22.451747880373 159.378485186917
3.402844444000 -12.205915065420 -15.164247455120 -12.624398147944 170.499581533042 -12.984971124484 162.735826006240 -22.395742903617 159.281535149745
3.403022222000 -12.226770656565 -15.067032023331 -12.622577057743 170.476104620697 -12.991920125388 162.670264619154 -22.419775764147 159.433074027875
3.403200000000 -12.248227843606 -15.171705258856 -12.624089389940 170.340910228869 -12.992213377529 162.597064471238 -22.440553168284 159.229426747783
3.403377777000 -12.245836233100 -15.245159964514 -12.616847416959 170.326088738820 -12.994239067198 162.549190575348 -22.368332482419 159.039653912995
3.403555555000 -12.258374798704 -15.341093171764 -12.620353666782 170.234728618120 -12.999329772062 162.511196985619 -22.378111292681 158.811197604758
3.403733333000 -12.276196500686 -15.309804112848 -12.622839621990 170.088610119166 -13.001824435169 162.372169234558 -22.412939448829 158.553493394989
3.403911111000 -12.305351026019 -15.352061158316 -12.629669525473 170.115378558877 -13.013625444214 162.371585099185 -22.350173989306 158.454978226841
3.404088888000 -12.332225575127 -15.327061503434 -12.627637993489 169.984224929366 -13.011052180957 162.332061495732 -22.375369826829 158.265945366386
3.404266666000 -12.355032836178 -15.316471247521 -12.620675128219 169.930745905734 -13.024830490488 162.303133397540 -22.330035599356 157.872124714424
3.404444444000 -12.377672962619 -15.334084069422 -12.623369957931 169.854430202697 -13.022352381034 162.210356382828 -22.377696432060 157.861405355455
3.404622222000 -12.401114088173 -15.256444726431 -12.634323358793 169.760487932785 -13.042374128009 162.196286882375 -22.339671150022 157.702974540632
3.404800000000 -12.416584306340 -15.226561465862 -12.626122914960 169.771009331809 -13.033084412038 162.190785926131 -22.323384345289 157.489715432271
3.404977777000 -12.419608374571 -15.374294067334 -12.630521558977 169.708681800331 -13.042854767913 162.117171321105 -22.338133026679 157.358434340853
3.405155555000 -12.435048727311 -15.285917118473 -12.631760530674 169.697713333536 -13.042041564691 162.067459334086 -22.361046972322 157.473519599693
3.405333333000 -12.461157043491 -15.429779495076 -12.624982654718 169.511308124290 -13.072232186477 161.927221265216 -22.302802795569 157.071545503544
3.405511111000 -12.491630624454 -15.424079312621 -12.669886000879 169.318963206716 -13.060272536728 161.949863148031 -22.326012668452 156.776073852990
3.405688888000 -12.486062801890 -15.474594550946 -12.626798394826 169.410464487560 -13.054433534687 161.907739236362 -22.327992939021 156.727259364128
3.405866666000 -12.477989723734 -15.799679080277 -12.632615119495 169.263978111734 -13.069051927285 161.815029283415 -22.338029956578 156.319016387851
3.406044444000 -12.491199767568 -15.880641710593 -12.641218380749 169.207137037476 -13.081072525365 161.716262002562 -22.271285891469 156.327167567107
3.406222222000 -12.517418901767 -16.062753820403 -12.666142387488 168.976342389628 -13.117689582317 161.672461712339 -22.298002159112 156.546692157588
3.406400000000 -12.510054192883 -15.972961508899 -12.632793254822 169.154067510180 -13.063883645336 161.685292886997 -22.256339916365 156.016522246604
3.406577777000 -12.529638845421 -16.124291261117 -12.616076078424 169.034262101604 -13.071529876217 161.579078111244 -22.278855570649 156.184884887951
3.406755555000 -12.554601964480 -16.141075848638 -12.624542423725 168.914089212255 -13.091881224730 161.539653202202 -22.234553531910 155.760422904909
3.406933333000 -12.567299999125 -16.235562881281 -12.636582319907 168.909824789404 -13.094184932805 161.462246822881 -22.211628507507 155.534178946444
3.407111111000 -12.598735180801 -16.234471056767 -12.620459065423 168.859949438698 -13.081427157665 161.510635676939 -22.216824073262 155.641092810025
3.407288888000 -12.603039425919 -16.325399857470 -12.619542988210 168.825164456006 -13.085307177377 161.444287598583 -22.243409930440 155.687480279789
3.407466666000 -12.628163175069 -16.217889850043 -12.623777878740 168.682185657055 -13.140786632148 161.361675586315 -22.259159279940 155.318685357195
3.407644444000 -12.675358961565 -16.172057786626 -12.652152941039 168.624355053862 -13.109292091112 161.330323560060 -22.204495602036 155.041593814502
3.407822222000 -12.684000796485 -16.294749486751 -12.629406117142 168.682790268998 -13.105156548378 161.299552817554 -22.185816088150 154.987978742493
3.408000000000 -12.678502167384 -16.250659827188 -12.627602115933 168.549851387112 -13.107102942841 161.228816862405 -22.179543840001 154.706975538162
3.408177777000 -12.703243534687 -16.322327266682 -12.632668642472 168.522334462859 -13.150575629504 161.216939518499 -22.200907589523 154.802919689481
3.408355555000 -12.743114228186 -16.265842210024 -12.677034302011 168.187849149342 -13.134481153242 161.124322845409 -22.176694117907 154.145029658445
3.408533333000 -12.740513468963 -16.404576067687 -12.624799486645 168.379359857285 -13.112529035889 161.123268866011 -22.136199271119 154.288522402498
3.408711111000 -12.739907593090 -16.593822338128 -12.622888612627 168.297164963509 -13.115323363050 161.070981835571 -22.151882940241 154.374392931293
3.408888888000 -12.764368239497 -16.585661296283 -12.624501474864 168.230761052162 -13.120586058367 160.981044822133 -22.105305883099 154.105282327606
3.409066666000 -12.764860478044 -16.677102347773 -12.619015624249 168.154842297729 -13.134685429032 160.931882533901 -22.115615996950 153.786592264358
3.409244444000 -12.781932336716 -16.695481883111 -12.626213433986 168.057046570259 -13.126547342708 160.926372755919 -22.115452501639 153.881562042410
3.409422222000 -12.779892207913 -16.999917779978 -12.615310738547 167.983539261996 -13.125652733195 160.843376907781 -22.042564022410 153.414611323775
3.409600000000 -12.796973039801 -17.189695004807 -12.609948703523 167.904833783507 -13.130658723656 160.856526798823 -22.077947402769 153.323701932871
3.409777777000 -12.800623787052 -17.136541419264 -12.616657777752 167.873596104230 -13.128673118595 160.785329667818 -22.127034190195 153.883190047130
3.409955555000 -12.809976097542 -17.186979349701 -12.611959998175 167.768442902003 -13.139377641538 160.690121023843 -22.110413892774 153.454170153042
3.410133333000 -12.839419899804 -17.269963416600 -12.612710407392 167.737049706767 -13.144527334160 160.651206699822 -22.061671271669 152.982037718520
3.410311111000 -12.863199109241 -17.335374581215 -12.614721212788 167.613797771965 -13.146564881039 160.625485606070 -22.043833761879 153.012151338664
3.410488888000 -12.871845508988 -17.309922940393 -12.607010187246 167.603486124025 -13.147851448819 160.626120331274 -22.048720625611 152.909668948760
3.410666666000 -12.896595632538 -17.309416653753 -12.615114230335 167.522547105612 -13.150334225543 160.582022724379 -22.049292669261 153.229421345497
3.410844444000 -12.936836770423 -17.409454138572 -12.615532549286 167.481617077178 -13.164416811206 160.577868435775 -22.064071259380 152.222678244310
3.411022222000 -12.955843450933 -17.372960326903 -12.615202719975 167.386084383429 -13.163371239255 160.445915726502 -22.029466089447 152.226476242260
3.411200000000 -12.958434904369 -17.464093967824 -12.619187691985 167.293893919499 -13.168732736112 160.403467322824 -22.014025436839 152.298450592862
3.411377777000 -12.987023422947 -17.448656662100 -12.618089792473 167.244110700237 -13.166819562057 160.344293093353 -21.996057510068 152.002219840255
3.411555555000 -13.001130922833 -17.508137832667 -12.617260061674 167.200083472432 -13.171583646183 160.356290516114 -22.035323455669 151.775403006707
3.411733333000 -13.025984037187 -17.394309098327 -12.614476122158 167.105537035275 -13.173295098035 160.282288241551 -21.969399034108 151.812802064394
3.411911111000 -13.042033341643 -17.503421530669 -12.617693852637 167.014233673299 -13.180158848127 160.136703312484 -21.960325661296 151.713831368571
3.412088888000 -13.051608691194 -17.670977440374 -12.617136993804 166.951220302353 -13.181883025800 160.157542741315 -21.971946709527 151.338866189569
3.412266666000 -13.067933925746 -17.725784034648 -12.622283123339 166.874736539765 -13.180206800933 160.070683896588 -21.910389091936 151.378606673491
3.412444444000 -13.067166932241 -17.936315896805 -12.612847403865 166.764823978444 -13.181856549577 160.013332429636 -21.921308533236 151.247610632539
3.412622222000 -13.075827552229 -18.076824627436 -12.610388522059 166.725880182623 -13.188413791165 159.943995630996 -21.900262971951 150.968096039070
3.412800000000 -13.071759774226 -18.394965715653 -12.599632082183 166.614278907560 -13.191257592185 159.865669087314 -21.916657727820 150.701279153534
3.412977777000 -13.074953964395 -18.530680147849 -12.600092632655 166.557989440958 -13.191500112949 159.804352093758 -21.888358714085 150.457142318454
3.413155555000 -13.090422933915 -18.552926239197 -12.601799630445 166.479440969838 -13.197461231717 159.766658156266 -21.895700921615 150.851090935327
3.413333333000 -13.111289079731 -18.411256075244 -12.607669552291 166.415143816426 -13.196653889157 159.772025756069 -21.923700349827 150.498408055158
3.413511111000 -13.140648649833 -18.675342294430 -12.597016313489 166.300447855847 -13.205476973761 159.692456495629 -21.923136779274 150.115303860231
3.413688888000 -13.152710108520 -18.726236052013 -12.601759029167 166.243574443059 -13.200184369983 159.665620410181 -21.861936488580 150.369637908785
3.413866666000 -13.165470918227 -18.842447592963 -12.603495346392 166.205598477097 -13.214420028800 159.632771306587 -21.874647516582 149.539962129947
3.414044444000 -13.212092820988 -18.632014450985 -12.614053349388 166.112710230412 -13.224903923134 159.634152570608 -21.900908473223 149.332406426623
3.414222222000 -13.235596084249 -18.699048531854 -12.608504468787 166.062223568906 -13.220162799950 159.547904993032 -21.838795776313 149.668043979055
3.414400000000 -13.270997987673 -18.625129445360 -12.615238174659 165.978069278258 -13.225976269898 159.530526696754 -21.910769377606 149.001654817945
3.414577777000 -13.288827037818 -18.660872332481 -12.616040183438 165.955107988044 -13.222651816396 159.495585625855 -21.873793880878 149.387322975104
3.414755555000 -13.314440233950 -18.705818846705 -12.620714799955 165.853835529676 -13.235748298171 159.387251702159 -21.819056970332 149.101886556702
3.414933333000 -13.317826134563 -18.836923474868 -12.620423020499 165.708319722578 -13.241997709074 159.329216258805 -21.845721272485 148.995710038134
3.415111111000 -13.344208080804 -18.917441017581 -12.615428197980 165.706116610454 -13.238112246804 159.298174003867 -21.780373503349 148.465832837640
3.415288888000 -13.356285510368 -19.019036299086 -12.606837547551 165.626464992076 -13.242292732162 159.256426223877 -21.779675024865 148.343314257703
3.415466666000 -13.376700071224 -19.349822337421 -12.607077544223 165.524911433089 -13.245495266323 159.186322749813 -21.751276422161 148.314988200606
3.415644444000 -13.367985252431 -19.320200795203 -12.605933501384 165.459301386764 -13.249177359157 159.192748854603 -21.816069046942 148.208357379761
3.415822222000 -13.378581370443 -19.508598701816 -12.605208864029 165.415754394632 -13.247169898906 159.154080806119 -21.795222608647 148.220426936157
3.416000000000 -13.388527810444 -19.704682230668 -12.600543401092 165.364016477385 -13.240722714793 159.015600842799 -21.730945793821 148.073876777416
3.416177777000 -13.402362565906 -19.697923823338 -12.599192993216 165.241708582942 -13.247750110325 158.985934242650 -21.739724057420 148.065197689176
3.416355555000 -13.436493019821 -19.786895085947 -12.602599523957 165.164354023989 -13.247770722734 158.969953934371 -21.743619540072 147.885270385730
3.416533333000 -13.421922808085 -19.881294528417 -12.599251734855 165.080666496511 -13.254372593150 158.877464640246 -21.735798052527 147.524596472188
3.416711111000 -13.454176555638 -20.087312947870 -12.599680544818 165.032855031551 -13.261963133329 158.858052501921 -21.706445115370 147.437838335121
3.416888888000 -13.473102426070 -20.083917856217 -12.601719487972 164.979396881218 -13.265007183957 158.833925908918 -21.744862815824 147.175183348021
3.417066666000 -13.464139096489 -20.029997667285 -12.607038042469 164.935093457724 -13.257843241620 158.788348829231 -21.741948315457 147.358952880216
3.417244444000 -13.513110930757 -20.259893347258 -12.605204025644 164.774719115770 -13.275533135890 158.716104208092 -21.706117367591 146.980493680053
3.417422222000 -13.517119704227 -20.059804949519 -12.608369267857 164.778193003955 -13.278566978738 158.687799715883 -21.702585746460 146.618188571660
3.417600000000 -13.577955072172 -20.175816869093 -12.604705145438 164.692774102300 -13.276722316218 158.693943651540 -21.717886480214 146.636093240125
3.417777777000 -13.604209475192 -20.188462930497 -12.608863548159 164.624308448201 -13.279770141716 158.556519628175 -21.675521516168 146.416773494620
3.417955555000 -13.629708105391 -20.361884395771 -12.606923148752 164.515790516200 -13.282722886420 158.526989857241 -21.657946184865 146.214310495860
3.418133333000 -13.630918735693 -20.381402054023 -12.617976904046 164.402139791243 -13.284587566032 158.549973690453 -21.682231328544 146.112564517282
3.418311111000 -13.649778188941 -20.528957879975 -12.611537718451 164.416892736745 -13.289080210507 158.473509380310 -21.646326548290 146.252010856397
3.418488888000 -13.661480568189 -20.610247732474 -12.604686664464 164.271430757563 -13.291675962812 158.387105609633 -21.668878951496 146.012943602677
3.418666666000 -13.670704673872 -20.769032143529 -12.604009612340 164.213860994508 -13.295270375810 158.308432149930 -21.604082915967 145.718047076896
3.418844444000 -13.697507554917 -20.914468253104 -12.611180365133 164.044034456003 -13.307202646557 158.258738652433 -21.593441708032 145.518868834208
3.419022222000 -13.676711437251 -21.309677586482 -12.600124903007 164.019048405227 -13.300112884210 158.261050479598 -21.619700354285 145.666871608573
3.419200000000 -13.687290947945 -21.281953548797 -12.594600409912 163.964829113068 -13.303152963558 158.194372986928 -21.617743638687 145.292414686213
3.419377777000 -13.686453350270 -21.442836916361 -12.597276619702 163.875430309870 -13.299667804276 158.118527329788 -21.603436559566 145.131157018851
3.419555555000 -13.703537990642 -21.573437160756 -12.592599175488 163.801015257771 -13.306633632524 158.095148135437 -21.574028310749 145.159205129104
3.419733333000 -13.702755734950 -21.812164084840 -12.591583332598 163.678029969516 -13.312778737112 158.024210197090 -21.585082779796 144.702148776954
3.419911111000 -13.721531807767 -21.710357705013 -12.597531433486 163.622417463694 -13.316215795977 157.977966403933 -21.581879093511 144.510931407229
3.420088888000 -13.763632324886 -21.687941881090 -12.602062853716 163.553585180881 -13.313795450266 157.933604649456 -21.558620865233 144.469164403983
3.420266666000 -13.794630648598 -21.909142600065 -12.598328067745 163.461801754614 -13.316697832120 157.881134979117 -21.526957702403 144.507102765167
3.420444444000 -13.817922399599 -22.027336699048 -12.608765591905 163.327372840909 -13.325714530799 157.827555761064 -21.555091116726 144.171881690614
3.420622222000 -13.850644965681 -22.020268870342 -12.601134204176 163.328898212483 -13.323954468663 157.816414685923 -21.536294964072 144.253830803769
3.420800000000 -13.885122538475 -21.866549819580 -12.606052923780 163.234125420814 -13.331294664566 157.704400402295 -21.545625134952 143.855593606109
3.420977777000 -13.925940955502 -22.100190856641 -12.637322609091 162.968993489581 -13.354066255957 157.646442402004 -21.537472099198 143.575204017037
3.421155555000 -13.921434891223 -22.191691623855 -12.612334372421 163.067454624700 -13.333923662335 157.644503188345 -21.481817174028 143.669156167089
3.421333333000 -13.943017323441 -22.306438655651 -12.615725165863 162.969635058542 -13.346333688883 157.519773115076 -21.472378380324 143.325266841965
3.421511111000 -13.941343096358 -22.287745397047 -12.609582221841 162.970884730984 -13.339288154664 157.602050291848 -21.519494214763 143.239772079407
3.421688888000 -13.961420803049 -22.617521276820 -12.599913196795 162.871743724722 -13.337216613095 157.529573829518 -21.453919700439 143.157326054833
3.421866666000 -13.980987733832 -22.569284689424 -12.607448883253 162.747918517885 -13.344605000507 157.486487695212 -21.457776603860 143.126527257463
3.422044444000 -13.999328603417 -22.828356961267 -12.602541552547 162.668070042664 -13.351723893891 157.368198784006 -21.446120983125 142.934465082351
3.422222222000 -13.990673345559 -22.926200767680 -12.612316918787 162.535612496437 -13.342087402119 157.362981674124 -21.426139574280 142.681172060710
3.422400000000 -13.972361376746 -23.295733847398 -12.602126972348 162.500344356882 -13.344127264983 157.210699935304 -21.464053442103 142.841550092807
3.422577777000 -14.001290300291 -23.293872292590 -12.599067770686 162.454709893195 -13.352469793799 157.297630007323 -21.445518410401 142.446727639241
3.422755555000 -14.016683887076 -23.531222318172 -12.590573337851 162.348827178324 -13.362134903975 157.134146350525 -21.388401370788 142.241826449021
3.422933333000 -14.012732796780 -23.602263913027 -12.604204978598 162.310093338020 -13.345775704904 157.100575458088 -21.372428586936 142.469765484499
3.423111111000 -14.051683295971 -23.656328675430 -12.596852924185 162.202348752935 -13.353610949598 157.086867267361 -21.424163027058 141.957930189483
