# GHZ S DB R 50.000000000000
3.400000000000 -16.539368156624 -68.412706447056 -2.688021559398 140.132455107788 -3.073557672609 139.353664852675 -20.930822491120 -45.311103087017
3.400177777000 -16.580364297648 -68.418379784983 -2.678103810450 140.055314952707 -3.064395717256 139.236104021618 -20.965805223190 -45.312537991063
3.400355555000 -16.618754315659 -68.555095794972 -2.680317917115 139.986385299689 -3.066358343574 139.112292214892 -21.029416358937 -45.342922672680
3.400533333000 -16.669621159678 -68.738472971550 -2.683114339828 139.890713604513 -3.059680690087 139.085426174016 -21.029049229450 -45.269263989492
3.400711111000 -16.707988488008 -68.686601683556 -2.678215707181 139.854602845555 -3.061830195887 139.083798965771 -21.044396219645 -44.625890569656
3.400888888000 -16.701921594541 -68.923824238737 -2.668921173516 139.838715518875 -3.059433003367 139.049120157754 -21.066889358901 -44.383567694086
3.401066666000 -16.736167492243 -68.631532366642 -2.674366569861 139.755992766525 -3.056817240471 138.934821420640 -21.123770048454 -44.740759707477
3.401244444000 -16.795722435453 -68.854108496710 -2.668869775760 139.617186660581 -3.052313328829 138.903183927580 -21.142228045300 -44.668625269130
3.401422222000 -16.781044490209 -68.909446247953 -2.675889077588 139.670911681340 -3.055322791628 138.983928403350 -21.129841785018 -44.194872977331
3.401600000000 -16.786503000529 -68.910863731903 -2.666479645894 139.714981407165 -3.050310432559 138.876163328749 -21.181993407624 -44.483990610465
3.401777777000 -16.859439103198 -68.996066771442 -2.669768782981 139.581230318306 -3.047690200467 138.880469750344 -21.172772111967 -43.994952093923
3.401955555000 -16.868744272100 -69.100429745618 -2.670083101584 139.541042211860 -3.056430099644 138.869508516434 -21.182963317820 -43.923895569217
3.402133333000 -16.910576076088 -68.944484824445 -2.674695374416 139.411278080442 -3.046375355794 138.850689261797 -21.188704791463 -43.701088633431
3.402311111000 -16.922199110865 -68.807571705356 -2.676827647987 139.524224503174 -3.042244451054 138.808575145030 -21.235015589675 -43.895604635639
3.402488888000 -16.949346220219 -68.918689708312 -2.671044420231 139.379401247149 -3.041881567996 138.791429546755 -21.253665356585 -43.674451819188
3.402666666000 -16.985316263458 -69.023418029129 -2.672433689779 139.409329719355 -3.045719382253 138.761968708094 -21.305218330038 -43.597751915424
3.402844444000 -16.986620257244 -69.192285094696 -2.671593252148 139.373324320048 -3.038514280972 138.775710641118 -21.300290578431 -43.647298488035
3.403022222000 -17.031119959311 -69.133579314251 -2.664993772247 139.336235956522 -3.046533751305 138.715696921022 -21.300292310930 -43.430147663242
3.403200000000 -17.058055766363 -69.226810350999 -2.667014806544 139.332643556499 -3.040654472729 138.694989900799 -21.300856519166 -43.348946467104
3.403377777000 -17.083746292072 -69.137391271942 -2.661576721630 139.283933215203 -3.037516616421 138.651922585186 -21.361161654466 -43.341059746414
3.403555555000 -17.069973548614 -69.085055740852 -2.667199186892 139.233692676481 -3.042105941313 138.663916891944 -21.334415411978 -43.150132488637
3.403733333000 -17.139299711566 -69.034433130391 -2.671603818831 139.227278966490 -3.042776549727 138.598400409108 -21.345605600075 -42.907082531659
3.403911111000 -17.147214661463 -69.330599443558 -2.675569271472 139.213731248850 -3.039034548900 138.576138393609 -21.403114253955 -43.055144098532
3.404088888000 -17.174385407374 -69.292990583652 -2.671137270536 139.100978778344 -3.033316311447 138.533982315316 -21.412606357832 -42.821232535086
3.404266666000 -17.187693521337 -69.352924018560 -2.664315413375 139.126972715108 -3.037877595425 138.579504327977 -21.414318370636 -42.654919056614
3.404444444000 -17.249357820348 -69.368746838617 -2.665781689551 139.053296707741 -3.029443638698 138.521484550775 -21.453438508131 -42.482118963614
3.404622222000 -17.322704063998 -69.324627582348 -2.669933236707 138.959035667541 -3.042436790407 138.367365142113 -21.433141329696 -41.887192127546
3.404800000000 -17.264531431320 -69.572834673820 -2.662115700266 138.954982234973 -3.031736056335 138.439658476926 -21.501265653047 -42.263733918543
3.404977777000 -17.302347690407 -69.449667080498 -2.664891481749 138.924894721440 -3.034091246525 138.362648742828 -21.482842171491 -42.364325474598
3.405155555000 -17.366410990349 -69.347679401276 -2.668328571973 138.949006321651 -3.029949588623 138.418049977767 -21.462676776569 -41.998604174557
3.405333333000 -17.392922094501 -69.294537011871 -2.664719889259 138.840510103795 -3.056577869147 138.253237655217 -21.328933039525 -41.225159480023
3.405511111000 -17.579146193230 -68.989499661649 -2.710639850741 138.666046448616 -3.032965065493 138.253080154275 -21.446936703904 -41.196651887315
3.405688888000 -17.465410631162 -69.553855301828 -2.664958717710 138.802850742678 -3.032328590123 138.345057556855 -21.548497135576 -41.402139239475
3.405866666000 -17.465473055660 -69.798445906028 -2.673942138186 138.678147782952 -3.030918984537 138.324836505198 -21.467069017174 -40.957357299034
3.406044444000 -17.597737538862 -69.281317904462 -2.686118257383 138.649799101944 -3.039477855415 138.230269340342 -21.451508775648 -41.460182198659
3.406222222000 -17.694375316484 -68.659041172952 -2.712920159405 138.468910539958 -3.078365227344 138.113297560671 -21.172811626810 -40.418039171617
3.406400000000 -17.602866032908 -69.521425225091 -2.674142579550 138.651647315882 -3.018873825498 138.256994047584 -21.612626905362 -40.915360071286
3.406577777000 -17.554960385702 -69.752992153252 -2.658595599526 138.660842652134 -3.023644015604 138.167762912740 -21.598289833619 -40.940929391034
3.406755555000 -17.642598487018 -69.655797294995 -2.667033976710 138.508911566242 -3.034916402215 138.085829699064 -21.553152994621 -40.897226993788
3.406933333000 -17.721897917963 -69.474575266881 -2.685584865040 138.553516225353 -3.035864514804 138.084559900522 -21.507761238692 -40.578314262998
3.407111111000 -17.690845781398 -69.897383519287 -2.668129532458 138.558910717454 -3.011576695474 138.128679986192 -21.677850993156 -40.829343117231
3.407288888000 -17.602112155150 -69.839483092324 -2.659084614851 138.550621690523 -3.017854702857 138.144568018442 -21.690913834705 -40.698445980226
3.407466666000 -17.732716514658 -69.551193650346 -2.663033673411 138.413371348047 -3.073587921500 137.935687763265 -21.338386622912 -39.786947303096
3.407644444000 -17.879188451916 -69.687998631057 -2.692444723193 138.346836057270 -3.019616917483 138.032240169294 -21.561119013514 -40.028539818843
3.407822222000 -17.755693894366 -70.293345878257 -2.659355541735 138.432172127150 -3.011948960148 138.041684427772 -21.753579819644 -40.299445553641
3.408000000000 -17.780041231721 -69.953850192511 -2.661541545071 138.386265045256 -3.011574903121 138.037728916662 -21.711124128456 -39.802023058404
3.408177777000 -17.867690983096 -69.919010739179 -2.667441083535 138.298309432713 -3.051158569846 137.867742855999 -21.465533664478 -39.542604459625
3.408355555000 -18.140956550100 -69.251449554934 -2.718690461949 138.061288033415 -3.022337308031 137.814992517830 -21.597673939100 -39.139266858518
3.408533333000 -17.859976689750 -70.149626299386 -2.658349594093 138.300936732491 -3.012987419586 137.880317007930 -21.796952541491 -39.924441063799
3.408711111000 -17.882134561813 -70.302789058478 -2.657665154913 138.250487707717 -3.000068323765 137.865972238640 -21.786263205067 -39.732379808110
3.408888888000 -17.925131257773 -70.369118059473 -2.659518936896 138.240312265140 -3.004448409236 137.848262429667 -21.796406166423 -39.671174884889
3.409066666000 -17.962760585730 -70.278408805027 -2.655917415065 138.196410797013 -3.009209541575 137.832444322995 -21.739494430018 -39.333636388769
3.409244444000 -17.993339836208 -70.247487407820 -2.660322307732 138.166540139411 -3.001419942817 137.823861492986 -21.859063854850 -39.791741265892
3.409422222000 -17.996499819801 -70.334835567215 -2.655192147858 138.090137401701 -3.000957452049 137.748556997912 -21.923120960870 -39.403504029579
3.409600000000 -17.997975206619 -70.610383223275 -2.650781823117 138.068895611868 -3.000823857227 137.787386127912 -21.870071670551 -38.738594080751
3.409777777000 -18.031274144527 -70.457775038067 -2.651915531073 138.133695099501 -2.998365547996 137.729880962984 -21.861130502939 -39.203320824939
3.409955555000 -18.089312859978 -70.376387826812 -2.650200402095 138.071877608182 -2.997274139101 137.647077470957 -21.891241244241 -39.159624830753
3.410133333000 -18.131921395841 -70.762562797840 -2.653842854954 137.962079642991 -3.000786121226 137.697390156040 -21.921920114542 -38.802312918838
3.410311111000 -18.131220090503 -70.885830707954 -2.652549419613 137.918056557698 -2.997400579199 137.649841352975 -21.910564716615 -38.481990672492
3.410488888000 -18.182935343447 -70.883243108210 -2.648719591278 137.931118467782 -2.992526494426 137.608798705858 -21.924865415754 -38.437100900618
3.410666666000 -18.230656265302 -70.692986028386 -2.650242928389 137.870247927335 -2.990780965499 137.561280635966 -21.933480504974 -38.179406131598
3.410844444000 -18.213960887607 -71.079964680284 -2.645132091044 137.842374123336 -2.993219605190 137.564259514036 -22.000405073127 -38.265235700821
3.411022222000 -18.250137127356 -70.963616328932 -2.645959397533 137.817226034962 -2.983767722559 137.588899278266 -21.966974236009 -37.848446437241
3.411200000000 -18.339000499286 -71.089105359906 -2.654452660973 137.719396547467 -2.983312711512 137.496899750555 -21.971492090040 -37.732474833590
3.411377777000 -18.355867205621 -71.171615737951 -2.650036350809 137.710455829501 -2.983633827058 137.508715833306 -21.995512714847 -37.756122646604
3.411555555000 -18.345001037276 -71.131333963383 -2.647867826309 137.738120100105 -2.974260482954 137.552481913583 -22.009618372897 -37.361563846388
3.411733333000 -18.358043730149 -71.212599017890 -2.639153686774 137.702110259783 -2.982672006799 137.491179729248 -22.033843716993 -37.352563417191
3.411911111000 -18.471204108893 -71.277417707097 -2.652704434843 137.613907241214 -2.985343834452 137.369790522582 -21.980165587227 -37.208364832683
3.412088888000 -18.444819530363 -71.381698111779 -2.642871002440 137.586075262128 -2.972197377129 137.414950672510 -22.074509865240 -37.394821680996
3.412266666000 -18.524700639702 -71.364991041965 -2.651901687036 137.581254946222 -2.976635670505 137.416773468821 -22.042972523966 -36.879689278136
3.412444444000 -18.562441720929 -71.734602226906 -2.646860331047 137.490510697394 -2.974545037181 137.346419529444 -22.040722394396 -37.144573828880
3.412622222000 -18.561707521939 -71.612570337537 -2.647265832501 137.463408407667 -2.977733650529 137.345265230026 -22.065082633754 -36.819593872086
3.412800000000 -18.561168242954 -71.752106438813 -2.645260317905 137.500431242594 -2.965320964758 137.280001492761 -22.095594938963 -36.680539848120
3.412977777000 -18.618723059737 -71.606669775944 -2.643495830449 137.450049369776 -2.977794593646 137.224167563102 -22.128239934445 -36.782730004349
3.413155555000 -18.644274015938 -71.657833805224 -2.644767188172 137.334512073491 -2.974090386549 137.170175989979 -22.085648934497 -36.236046779021
3.413333333000 -18.725059372799 -71.779948277848 -2.650704101880 137.327163917232 -2.966706414454 137.236351204120 -22.041308476446 -36.143442506011
3.413511111000 -18.686384319706 -72.378515606543 -2.634757217959 137.279404671674 -2.958973474589 137.176165323598 -22.099677696186 -36.130385992642
3.413688888000 -18.742997745872 -72.010006463342 -2.646094157297 137.265139473690 -2.966753615270 137.103239761112 -22.160880158756 -36.872854697464
3.413866666000 -18.717623221775 -71.880881876925 -2.636509552376 137.265179135348 -2.960851044683 137.105054570328 -22.154592566903 -35.956846346592
3.414044444000 -18.820280871096 -72.093082126906 -2.645876099660 137.207777835400 -2.970511952868 137.063600831290 -22.086715041815 -35.267481110847
3.414222222000 -18.801174587134 -72.064068142348 -2.638213191149 137.200440152750 -2.955543875599 137.053764393772 -22.195008409958 -35.959515820009
3.414400000000 -18.875834475122 -72.284352724014 -2.651378345883 137.101492430787 -2.962333865226 137.091853504619 -22.144948028359 -35.352776988126
3.414577777000 -18.866309144966 -72.270365754370 -2.640283920366 137.125245847791 -2.958985536157 137.061820492787 -22.153813764301 -35.223907954130
3.414755555000 -18.956095476348 -72.741297658973 -2.646385825647 136.991155625145 -2.962845187104 137.001584902908 -22.110393825670 -35.245767932576
3.414933333000 -19.074616204910 -72.539053824441 -2.655106559276 136.877344261912 -2.959229241533 136.921814834593 -22.094300630836 -35.470513094601
3.415111111000 -18.985618080604 -72.795342053614 -2.637488818710 136.963254499421 -2.959256867284 136.886979159255 -22.208305223141 -35.065411836619
3.415288888000 -19.035198689732 -72.767017844092 -2.634179588498 136.943375348535 -2.954040567529 136.926389534710 -22.172128383605 -34.640245487869
3.415466666000 -19.004313535835 -72.900631168517 -2.636499653056 136.959442513672 -2.957500561986 136.858479390119 -22.221379028177 -34.916270016893
3.415644444000 -19.089473424106 -73.050835282746 -2.631672053069 136.879420502181 -2.948061178532 136.848733390566 -22.228335329538 -34.923764717293
3.415822222000 -19.083177979572 -73.037799778871 -2.633775853667 136.836649109221 -2.958866225086 136.896157068390 -22.197018219421 -34.727759029794
3.416000000000 -19.102398600535 -73.399034117233 -2.631654703883 136.839370915600 -2.947655643724 136.843955400978 -22.230857349818 -34.358210192360
3.416177777000 -19.183853105036 -72.999619032533 -2.640507997753 136.823162591681 -2.948749385523 136.767399129677 -22.250267427764 -34.751187623134
3.416355555000 -19.257034791124 -73.491596087499 -2.637554951394 136.743435363886 -2.941117174400 136.755419215947 -22.246091662881 -34.192357569711
3.416533333000 -19.293965830300 -73.408346041302 -2.639108116826 136.743895347197 -2.932918817436 136.709446588659 -22.208732614575 -33.788480711694
3.416711111000 -19.230546049188 -73.537145092108 -2.631479550337 136.715109691026 -2.939791784698 136.664317604643 -22.237314089731 -33.942158039807
3.416888888000 -19.307069033494 -73.599809782451 -2.633598443947 136.641139204075 -2.945710705643 136.669527879260 -22.237192262137 -33.852119343419
3.417066666000 -19.334814274689 -73.535896619183 -2.635679294415 136.617039374439 -2.936335660757 136.667891266921 -22.216042489460 -33.442007506244
3.417244444000 -19.341454873360 -73.941516603813 -2.629191014472 136.540978979622 -2.940802058297 136.562640891850 -22.204551043776 -33.217840937238
3.417422222000 -19.449510788940 -73.885810095373 -2.634537069051 136.491286431970 -2.932826136471 136.597364927959 -22.267430673574 -33.550943608059
3.417600000000 -19.438340533428 -74.321390768217 -2.622745873265 136.469875492294 -2.924629597241 136.590563540863 -22.285107304067 -32.844056207242
3.417777777000 -19.474307668163 -74.211173677608 -2.631467219637 136.453415134433 -2.924081918939 136.508023666608 -22.211865320371 -32.847109864878
3.417955555000 -19.498398305961 -74.418343882177 -2.628637188099 136.430802159855 -2.930111161909 136.414945683140 -22.274812882829 -32.916998329519
3.418133333000 -19.670272187740 -74.367727412148 -2.643025254754 136.247801474644 -2.915297661507 136.355405577661 -22.261982294946 -32.227959069198
3.418311111000 -19.566153708832 -74.716748607483 -2.629098862305 136.351231529783 -2.918429067742 136.424214323523 -22.232048274064 -32.588966501662
3.418488888000 -19.637986363726 -74.604136517986 -2.628881945892 136.327148049709 -2.923609230856 136.364711312519 -22.237415723471 -32.320746789483
3.418666666000 -19.670487020358 -74.837105249502 -2.630341576694 136.211987785964 -2.916744531134 136.343050479086 -22.299026962633 -32.605317545743
3.418844444000 -19.802704217628 -74.776265898081 -2.641024163048 136.145932399795 -2.935214823587 136.274352526568 -22.201671335736 -32.110016341653
3.419022222000 -19.687905504102 -75.319058102196 -2.628732570726 136.160450363374 -2.923538942728 136.362761068744 -22.253390166382 -31.738107943898
3.419200000000 -19.736413170870 -75.204760714014 -2.616902993461 136.177061291902 -2.929105991651 136.227666763166 -22.249548174790 -31.781461380785
3.419377777000 -19.775159989518 -75.266618436123 -2.626132705136 136.073939679983 -2.916454797415 136.266616154425 -22.260919089154 -31.651076958172
3.419555555000 -19.805634566936 -75.597107414432 -2.616655695200 136.065275041939 -2.913125678675 136.239616344501 -22.270643838214 -31.321912478670
3.419733333000 -19.865926893080 -75.409076935126 -2.627211000300 136.013278008092 -2.921457118142 136.184310557985 -22.241201376376 -31.075272042960
3.419911111000 -19.881117817637 -75.044167371892 -2.634009727961 136.007892486921 -2.917660086172 136.210903432367 -22.266562870193 -31.223004424981
3.420088888000 -19.923072506453 -75.450093080304 -2.629412720605 135.974950355912 -2.918697918316 136.126402676359 -22.230161214959 -30.742074430097
3.420266666000 -19.975388595273 -75.957002153781 -2.630674686738 135.966501975439 -2.908681723891 136.123730975330 -22.228973238453 -30.621977484246
3.420444444000 -20.041029510198 -76.205895442263 -2.624510629300 135.800494725417 -2.905225215066 136.037948090347 -22.233184630842 -30.245759246492
3.420622222000 -20.004791045537 -76.298850217745 -2.620466367656 135.831294045260 -2.913476593650 136.095810064496 -22.254569269170 -30.415658159210
3.420800000000 -20.050433257766 -75.978603318014 -2.621189829996 135.915505500851 -2.914877791908 136.043007318921 -22.171646058897 -29.980966218758
3.420977777000 -20.333095638594 -76.430222142740 -2.663055786454 135.606115010760 -2.924888605678 135.990008398228 -22.023986437881 -29.928231241466
3.421155555000 -20.190754509778 -76.587262510956 -2.633354966336 135.690344917745 -2.906594952098 135.973967837592 -22.148712867231 -29.521070158889
3.421333333000 -20.281408340936 -76.781310528867 -2.638211669312 135.638734959676 -2.901967300594 135.933933824661 -22.150290882833 -29.553764722286
3.421511111000 -20.193980367893 -76.902477940984 -2.618103557588 135.684424116554 -2.897757549663 135.863248328858 -22.213982179554 -29.393377753420
3.421688888000 -20.218000540936 -76.959325673089 -2.619745459076 135.622282100625 -2.902032349404 135.914971204778 -22.227864866262 -29.312959560957
3.421866666000 -20.229411265995 -76.990453032164 -2.612148850884 135.651073350578 -2.892496608330 135.868371690798 -22.234847592882 -29.202875502473
3.422044444000 -20.329755998869 -77.739570926517 -2.613937590235 135.529049265952 -2.893024152357 135.740065617068 -22.137435256163 -28.781750004373
3.422222222000 -20.463661144911 -77.403741033770 -2.638623095928 135.461530190128 -2.884227678794 135.870388567106 -22.228196526452 -28.990614358923
3.422400000000 -20.354601716118 -77.387446685093 -2.616395135302 135.504841095024 -2.889000496076 135.691955830189 -22.216196306426 -28.884546047927
3.422577777000 -20.383959622731 -77.867455764151 -2.613649304886 135.499599681884 -2.886595500625 135.794523969544 -22.207844051543 -28.383813633814
3.422755555000 -20.434206372345 -77.906997772293 -2.617741156189 135.465297767477 -2.888046500333 135.715844071301 -22.136482210810 -28.389944977847
3.422933333000 -20.501710767045 -78.285364221597 -2.618882729137 135.326584918020 -2.879104187806 135.777478533791 -22.195498962377 -28.351437268395
3.423111111000 -20.495158554660 -78.097046782505 -2.608059226858 135.381237464087 -2.884771549365 135.693716060338 -22.197812509010 -28.157380301791
3.423288888000 -20.584929504112 -78.372414264825 -2.612597502072 135.231176622432 -2.890177453293 135.621865732462 -22.124053454616 -27.895265382876
3.423466666000 -20.690802744380 -78.609174279124 -2.628557356827 135.187649509294 -2.894662574214 135.606140241374 -22.097872273836 -28.109269556987
